# vsim -cvgperinstance -vopt -voptargs="+acc" -coverage -sva -c -do " log -r /* ;coverage save -onexit mem_cov3;run -all; exit" -wlf wave_file3.wlf -l test3.log -sv_seed random work.top "+UVM_TESTNAME=test_incr" 
# Start time: 19:55:51 on Jan 18,2026
# ** Note: (vsim-8009) Loading existing optimized design _opt1
# //  Questa Sim-64
# //  Version 2022.1_2 linux_x86_64 Apr  2 2022
# //
# //  Copyright 1991-2022 Mentor Graphics Corporation
# //  All Rights Reserved.
# //
# //  QuestaSim and its associated documentation contain trade
# //  secrets and commercial or financial information that are the property of
# //  Mentor Graphics Corporation and are privileged, confidential,
# //  and exempt from disclosure under the Freedom of Information Act,
# //  5 U.S.C. Section 552. Furthermore, this information
# //  is prohibited from disclosure under the Trade Secrets Act,
# //  18 U.S.C. Section 1905.
# //
# Loading sv_std.std
# Loading work.axi_mif(fast)
# Loading work.axi_sif(fast)
# Loading mtiUvm.uvm_pkg(fast)
# Loading work.axi_test_pkg(fast)
# Loading mtiUvm.questa_uvm_pkg(fast)
# Loading work.top(fast)
# Loading work.axi_mif(fast__2)
# Loading work.axi_sif(fast__2)
# Loading work.axi_interconnect_wrap_4x4(fast)
# Loading work.axi_interconnect(fast)
# Loading work.arbiter(fast)
# Loading work.priority_encoder(fast)
# Loading /home/cad/eda/Mentor_Graphics/Questasim/questasim/uvm-1.1d/linux_x86_64/uvm_dpi.so
# ** Warning: (vsim-8634) Code was not compiled with coverage options.
# Sv_Seed = 1792257979
#  log -r /* 
# coverage save -onexit mem_cov3
# run -all
# ----------------------------------------------------------------
# UVM-1.1d
# (C) 2007-2013 Mentor Graphics Corporation
# (C) 2007-2013 Cadence Design Systems, Inc.
# (C) 2006-2013 Synopsys, Inc.
# (C) 2011-2013 Cypress Semiconductor Corp.
# ----------------------------------------------------------------
# 
#   ***********       IMPORTANT RELEASE NOTES         ************
# 
#   You are using a version of the UVM library that has been compiled
#   with `UVM_NO_DEPRECATED undefined.
#   See http://www.eda.org/svdb/view.php?id=3313 for more details.
# 
#   You are using a version of the UVM library that has been compiled
#   with `UVM_OBJECT_MUST_HAVE_CONSTRUCTOR undefined.
#   See http://www.eda.org/svdb/view.php?id=3770 for more details.
# 
#       (Specify +UVM_NO_RELNOTES to turn off this notice)
# 
# UVM_INFO verilog_src/questa_uvm_pkg-1.2/src/questa_uvm_pkg.sv(277) @ 0: reporter [Questa UVM] QUESTA_UVM-1.2.3
# UVM_INFO verilog_src/questa_uvm_pkg-1.2/src/questa_uvm_pkg.sv(278) @ 0: reporter [Questa UVM]  questa_uvm::init(+struct)
# Addressing configuration for axi_interconnect instance top.DUV.axi_interconnect_inst
#  0 ( 0): 00000000 / 24 -- 00000000-00ffffff
#  1 ( 0): 01000000 / 24 -- 01000000-01ffffff
#  2 ( 0): 02000000 / 24 -- 02000000-02ffffff
#  3 ( 0): 03000000 / 24 -- 03000000-03ffffff
# UVM_INFO @ 0: reporter [RNTST] Running test test_incr...
# UVM_INFO @ 0: reporter [UVMTOP] UVM testbench topology:
# ----------------------------------------------------------------
# Name                         Type                    Size  Value
# ----------------------------------------------------------------
# uvm_test_top                 test_incr               -     @491 
#   envh                       environment             -     @534 
#     magt_top                 master_agent_top        -     @542 
#       magt[0]                master_agent            -     @670 
#         mdrvh                master_driver           -     @710 
#           rsp_port           uvm_analysis_port       -     @725 
#           seq_item_port      uvm_seq_item_pull_port  -     @717 
#         mmonh                master_monitor          -     @703 
#         mseqrh               master_sequencer        -     @733 
#           rsp_export         uvm_analysis_export     -     @740 
#           seq_item_export    uvm_seq_item_pull_imp   -     @834 
#           arbitration_queue  array                   0     -    
#           lock_queue         array                   0     -    
#           num_last_reqs      integral                32    'd1  
#           num_last_rsps      integral                32    'd1  
#       magt[1]                master_agent            -     @678 
#         mdrvh                master_driver           -     @858 
#           rsp_port           uvm_analysis_port       -     @873 
#           seq_item_port      uvm_seq_item_pull_port  -     @865 
#         mmonh                master_monitor          -     @851 
#         mseqrh               master_sequencer        -     @881 
#           rsp_export         uvm_analysis_export     -     @888 
#           seq_item_export    uvm_seq_item_pull_imp   -     @982 
#           arbitration_queue  array                   0     -    
#           lock_queue         array                   0     -    
#           num_last_reqs      integral                32    'd1  
#           num_last_rsps      integral                32    'd1  
#       magt[2]                master_agent            -     @686 
#         mdrvh                master_driver           -     @1006
#           rsp_port           uvm_analysis_port       -     @1021
#           seq_item_port      uvm_seq_item_pull_port  -     @1013
#         mmonh                master_monitor          -     @999 
#         mseqrh               master_sequencer        -     @1029
#           rsp_export         uvm_analysis_export     -     @1036
#           seq_item_export    uvm_seq_item_pull_imp   -     @1130
#           arbitration_queue  array                   0     -    
#           lock_queue         array                   0     -    
#           num_last_reqs      integral                32    'd1  
#           num_last_rsps      integral                32    'd1  
#       magt[3]                master_agent            -     @694 
#         mdrvh                master_driver           -     @1154
#           rsp_port           uvm_analysis_port       -     @1169
#           seq_item_port      uvm_seq_item_pull_port  -     @1161
#         mmonh                master_monitor          -     @1147
#         mseqrh               master_sequencer        -     @1177
#           rsp_export         uvm_analysis_export     -     @1184
#           seq_item_export    uvm_seq_item_pull_imp   -     @1278
#           arbitration_queue  array                   0     -    
#           lock_queue         array                   0     -    
#           num_last_reqs      integral                32    'd1  
#           num_last_rsps      integral                32    'd1  
#     req                      virtual_sequencer       -     @556 
#       rsp_export             uvm_analysis_export     -     @563 
#       seq_item_export        uvm_seq_item_pull_imp   -     @657 
#       arbitration_queue      array                   0     -    
#       lock_queue             array                   0     -    
#       num_last_reqs          integral                32    'd1  
#       num_last_rsps          integral                32    'd1  
#     sagt_top                 slave_agent_top         -     @549 
#       sagt[0]                slave_agent             -     @1303
#         sdrvh                slave_driver            -     @1343
#           rsp_port           uvm_analysis_port       -     @1358
#           seq_item_port      uvm_seq_item_pull_port  -     @1350
#         smonh                slave_monitor           -     @1336
#         sseqrh               slave_sequencer         -     @1366
#           rsp_export         uvm_analysis_export     -     @1373
#           seq_item_export    uvm_seq_item_pull_imp   -     @1467
#           arbitration_queue  array                   0     -    
#           lock_queue         array                   0     -    
#           num_last_reqs      integral                32    'd1  
#           num_last_rsps      integral                32    'd1  
#       sagt[1]                slave_agent             -     @1311
#         sdrvh                slave_driver            -     @1491
#           rsp_port           uvm_analysis_port       -     @1506
#           seq_item_port      uvm_seq_item_pull_port  -     @1498
#         smonh                slave_monitor           -     @1484
#         sseqrh               slave_sequencer         -     @1514
#           rsp_export         uvm_analysis_export     -     @1521
#           seq_item_export    uvm_seq_item_pull_imp   -     @1615
#           arbitration_queue  array                   0     -    
#           lock_queue         array                   0     -    
#           num_last_reqs      integral                32    'd1  
#           num_last_rsps      integral                32    'd1  
#       sagt[2]                slave_agent             -     @1319
#         sdrvh                slave_driver            -     @1639
#           rsp_port           uvm_analysis_port       -     @1654
#           seq_item_port      uvm_seq_item_pull_port  -     @1646
#         smonh                slave_monitor           -     @1632
#         sseqrh               slave_sequencer         -     @1662
#           rsp_export         uvm_analysis_export     -     @1669
#           seq_item_export    uvm_seq_item_pull_imp   -     @1763
#           arbitration_queue  array                   0     -    
#           lock_queue         array                   0     -    
#           num_last_reqs      integral                32    'd1  
#           num_last_rsps      integral                32    'd1  
#       sagt[3]                slave_agent             -     @1327
#         sdrvh                slave_driver            -     @1787
#           rsp_port           uvm_analysis_port       -     @1802
#           seq_item_port      uvm_seq_item_pull_port  -     @1794
#         smonh                slave_monitor           -     @1780
#         sseqrh               slave_sequencer         -     @1810
#           rsp_export         uvm_analysis_export     -     @1817
#           seq_item_export    uvm_seq_item_pull_imp   -     @1911
#           arbitration_queue  array                   0     -    
#           lock_queue         array                   0     -    
#           num_last_reqs      integral                32    'd1  
#           num_last_rsps      integral                32    'd1  
# ----------------------------------------------------------------
# 
# start of read_awaddr
# start of slave_addr
# start of read_awaddr
# start of slave_addr
# start of read_awaddr
# start of slave_addr
# start of read_awaddr
# start of slave_addr
# //////////////////////////////////////////////// write_addr////////////////
#  wr_addr=14525169 14525170 14525171 14525172 14525173 14525174 14525175 14525176 14525177 14525178 14525179 14525180 14525181 14525182 14525183 14525184
# //////////////////////////////////////////////// write_addr_AWADDR   ////////////////
#  AWADDR=14525169
# //////////////////////////////////////////////// read_addr////////////////
#  rd_addr=3864059 3864060 3864061 3864062 3864063 3864064 3864065
# //////////////////////////////////////////////// write_addr_ARADDR  ////////////////
#  ARADDR=3864059
# //////////////////////////////////////////////// write_addr////////////////
#  wr_addr=30515073 30515076 30515080 30515084 30515088 30515092 30515096 30515100 30515104 30515108 30515112 30515116 30515120
# //////////////////////////////////////////////// write_addr_AWADDR   ////////////////
#  AWADDR=30515073
# //////////////////////////////////////////////// read_addr////////////////
#  rd_addr=26224029 26224030 26224031 26224032 26224033 26224034 26224035 26224036 26224037 26224038 26224039 26224040 26224041 26224042 26224043 26224044
# //////////////////////////////////////////////// write_addr_ARADDR  ////////////////
#  ARADDR=26224029
# //////////////////////////////////////////////// write_addr////////////////
#  wr_addr=39895969 39895970 39895971 39895972 39895973 39895974 39895975 39895976 39895977 39895978 39895979 39895980
# //////////////////////////////////////////////// write_addr_AWADDR   ////////////////
#  AWADDR=39895969
# //////////////////////////////////////////////// read_addr////////////////
#  rd_addr=41911478 41911480 41911482 41911484
# //////////////////////////////////////////////// write_addr_ARADDR  ////////////////
#  ARADDR=41911478
# //////////////////////////////////////////////// write_addr////////////////
#  wr_addr=63423911 63423912 63423914 63423916 63423918 63423920 63423922
# //////////////////////////////////////////////// write_addr_AWADDR   ////////////////
#  AWADDR=63423911
# //////////////////////////////////////////////// read_addr////////////////
#  rd_addr=62600687 62600688 62600692 62600696 62600700
# //////////////////////////////////////////////// write_addr_ARADDR  ////////////////
#  ARADDR=62600687
# start of drive_awaddr
# start of drive_raddr
# start of drive_awaddr
# start of drive_raddr
# start of drive_awaddr
# start of drive_raddr
# start of drive_awaddr
# start of drive_raddr
# inside drive_raddr before wait ARREADY
# inside drive_raddr before wait ARREADY
# inside drive_raddr before wait ARREADY
# inside drive_raddr before wait ARREADY
# UVM_INFO ../master_agent_top/master_monitor.sv(104) @ 45000: uvm_test_top.envh.magt_top.magt[0].mmonh [master_monitor] Printing from waddr collect task -----------------------------------
# Name       Type      Size  Value   
# -----------------------------------
# xtn        axi_xtn   -     @2053   
#   AWID     integral  4     'd0     
#   AWADDR   integral  32    'hdda2f1
#   AWLEN    integral  4     15      
#   AWSIZE   integral  3     'd0     
#   AWBURST  integral  2     'd1     
#   WID      integral  4     'd0     
#   BID      integral  4     'd0     
#   BRESP    integral  2     'd0     
#   ARID     integral  4     'd0     
#   ARADDR   integral  32    'h0     
#   ARLEN    integral  8     'd0     
#   ARSIZE   integral  3     'd0     
#   ARBURST  integral  2     'd0     
#   RID      integral  4     'd0     
# -----------------------------------
# 
# end of drive_awadrr
# UVM_INFO ../master_agent_top/master_driver.sv(46) @ 55000: uvm_test_top.envh.magt_top.magt[0].mdrvh [master_driver] Prinitng from driver ---------------------------------------------------------------------------------------------------
# Name                           Type      Size  Value                                               
# ---------------------------------------------------------------------------------------------------
# req                            axi_xtn   -     @2082                                               
#   begin_time                   time      64    0                                                   
#   depth                        int       32    'd2                                                 
#   parent sequence (name)       string    10    incr_seq00                                          
#   parent sequence (full name)  string    52    uvm_test_top.envh.magt_top.magt[0].mseqrh.incr_seq00
#   sequencer                    string    41    uvm_test_top.envh.magt_top.magt[0].mseqrh           
#   AWID                         integral  4     'd0                                                 
#   AWADDR                       integral  32    'hdda2f1                                            
#   AWLEN                        integral  4     15                                                  
#   AWSIZE                       integral  3     'd0                                                 
#   AWBURST                      integral  2     'd1                                                 
#   WID                          integral  4     'd0                                                 
#   WDATA                        integral  32    'he421416                                           
#   WSTRB                        integral  4     'b10                                                
#   WLAST                        integral  1     'dX                                                 
#   WDATA                        integral  32    'hdfea9274                                          
#   WSTRB                        integral  4     'b100                                               
#   WLAST                        integral  1     'dX                                                 
#   WDATA                        integral  32    'hd843b0c6                                          
#   WSTRB                        integral  4     'b1000                                              
#   WLAST                        integral  1     'dX                                                 
#   WDATA                        integral  32    'hdaf40644                                          
#   WSTRB                        integral  4     'b1                                                 
#   WLAST                        integral  1     'dX                                                 
#   WDATA                        integral  32    'h3a144bd7                                          
#   WSTRB                        integral  4     'b10                                                
#   WLAST                        integral  1     'dX                                                 
#   WDATA                        integral  32    'h8321fb2                                           
#   WSTRB                        integral  4     'b100                                               
#   WLAST                        integral  1     'dX                                                 
#   WDATA                        integral  32    'h9d40a76e                                          
#   WSTRB                        integral  4     'b1000                                              
#   WLAST                        integral  1     'dX                                                 
#   WDATA                        integral  32    'had01b383                                          
#   WSTRB                        integral  4     'b1                                                 
#   WLAST                        integral  1     'dX                                                 
#   WDATA                        integral  32    'hf7f4cf2c                                          
#   WSTRB                        integral  4     'b10                                                
#   WLAST                        integral  1     'dX                                                 
#   WDATA                        integral  32    'h869c2c80                                          
#   WSTRB                        integral  4     'b100                                               
#   WLAST                        integral  1     'dX                                                 
#   WDATA                        integral  32    'he4e744e7                                          
#   WSTRB                        integral  4     'b1000                                              
#   WLAST                        integral  1     'dX                                                 
#   WDATA                        integral  32    'hce5183bc                                          
#   WSTRB                        integral  4     'b1                                                 
#   WLAST                        integral  1     'dX                                                 
#   WDATA                        integral  32    'h635beb12                                          
#   WSTRB                        integral  4     'b10                                                
#   WLAST                        integral  1     'dX                                                 
#   WDATA                        integral  32    'h8e4ad5d6                                          
#   WSTRB                        integral  4     'b100                                               
#   WLAST                        integral  1     'dX                                                 
#   WDATA                        integral  32    'h1ad35696                                          
#   WSTRB                        integral  4     'b1000                                              
#   WLAST                        integral  1     'dX                                                 
#   WDATA                        integral  32    'h70e9a59f                                          
#   WSTRB                        integral  4     'b1                                                 
#   WLAST                        integral  1     'dX                                                 
#   BID                          integral  4     'd0                                                 
#   BRESP                        integral  2     'd0                                                 
#   ARID                         integral  4     14                                                  
#   ARADDR                       integral  32    'h3af5fb                                            
#   ARLEN                        integral  8     'd6                                                 
#   ARSIZE                       integral  3     'd0                                                 
#   ARBURST                      integral  2     'd1                                                 
#   RID                          integral  4     14                                                  
#   RDATA                        integral  32    'hf8d6029f                                          
#   RRESP                        integral  2     'd0                                                 
#   RDATA                        integral  32    'h88c298f3                                          
#   RRESP                        integral  2     'd0                                                 
#   RDATA                        integral  32    'he7db3e2d                                          
#   RRESP                        integral  2     'd0                                                 
#   RDATA                        integral  32    'h5f659c09                                          
#   RRESP                        integral  2     'd0                                                 
#   RDATA                        integral  32    'h5a449bb3                                          
#   RRESP                        integral  2     'd0                                                 
#   RDATA                        integral  32    'hea713596                                          
#   RRESP                        integral  2     'd0                                                 
#   RDATA                        integral  32    'hb631826d                                          
#   RRESP                        integral  2     'd0                                                 
# ---------------------------------------------------------------------------------------------------
# 
# start ofdrive_wdata
# ** Warning: (vsim-8630) Infinity results from division operation.
#    Time: 55 ns  Iteration: 4  Process: /axi_test_pkg::master_monitor::collect_data/#FORK#59_7feff1cb796 File: ../tb/axi_xtn.sv Line: 136
# UVM_INFO ../slave_agent_top/slave_monitor.sv(100) @ 65000: uvm_test_top.envh.sagt_top.sagt[0].smonh [slave_monitor] Printing from waddr collect task -----------------------------------
# Name       Type      Size  Value   
# -----------------------------------
# xtn        axi_xtn   -     @1999   
#   AWID     integral  4     'd0     
#   AWADDR   integral  32    'hdda2f1
#   AWLEN    integral  4     15      
#   AWSIZE   integral  3     'd0     
#   AWBURST  integral  2     'd1     
#   WID      integral  4     'd0     
#   BID      integral  4     'd0     
#   BRESP    integral  2     'd0     
#   ARID     integral  4     'd0     
#   ARADDR   integral  32    'h0     
#   ARLEN    integral  8     'd0     
#   ARSIZE   integral  3     'd0     
#   ARBURST  integral  2     'd0     
#   RID      integral  4     'd0     
# -----------------------------------
# 
# ** Warning: (vsim-8630) Infinity results from division operation.
#    Time: 75 ns  Iteration: 5  Process: /axi_test_pkg::slave_monitor::collect_data/#FORK#55_7feff1c9859 File: ../tb/axi_xtn.sv Line: 136
# UVM_INFO ../master_agent_top/master_monitor.sv(156) @ 85000: uvm_test_top.envh.magt_top.magt[0].mmonh [master_monitor] Printing from wdata collect task --------------------------------
# Name       Type      Size  Value
# --------------------------------
# xtn        axi_xtn   -     @2314
#   AWID     integral  4     'd0  
#   AWADDR   integral  32    'h0  
#   AWLEN    integral  4     'd0  
#   AWSIZE   integral  3     'd0  
#   AWBURST  integral  2     'd0  
#   WID      integral  4     'd0  
#   WDATA    integral  32    'h14 
#   WSTRB    integral  4     'b10 
#   WLAST    integral  1     'd0  
#   BID      integral  4     'd0  
#   BRESP    integral  2     'd0  
#   ARID     integral  4     'd0  
#   ARADDR   integral  32    'h0  
#   ARLEN    integral  8     'd0  
#   ARSIZE   integral  3     'd0  
#   ARBURST  integral  2     'd0  
#   RID      integral  4     'd0  
# --------------------------------
# 
# end of read_awaddr
# start of read_awaddr
# start of read_data
# ** Warning: (vsim-8630) Infinity results from division operation.
#    Time: 95 ns  Iteration: 3  Process: /axi_test_pkg::slave_driver::drive/#FORK#58_7feff1c9810 File: ../tb/axi_xtn.sv Line: 136
# aligned:dda2f1
# address calculated in slave side '{14525169, 14525170, 14525171, 14525172, 14525173, 14525174, 14525175, 14525176, 14525177, 14525178, 14525179, 14525180, 14525181, 14525182, 14525183, 14525184}
# slave driver start of awvalid
# WSTRB in slave driver is:2
# value inside mem is: 5142
# slave driver start of awvalid
# WSTRB in slave driver is:4
# value inside mem is: 234
# UVM_INFO ../slave_agent_top/slave_monitor.sv(152) @ 115000: uvm_test_top.envh.sagt_top.sagt[0].smonh [slave_monitor] Printing from wdata collect task --------------------------------
# Name       Type      Size  Value
# --------------------------------
# xtn        axi_xtn   -     @2323
#   AWID     integral  4     'd0  
#   AWADDR   integral  32    'h0  
#   AWLEN    integral  4     'd0  
#   AWSIZE   integral  3     'd0  
#   AWBURST  integral  2     'd0  
#   WID      integral  4     'd0  
#   WDATA    integral  32    'h14 
#   WSTRB    integral  4     'b10 
#   WLAST    integral  1     'd0  
#   BID      integral  4     'd0  
#   BRESP    integral  2     'd0  
#   ARID     integral  4     'd0  
#   ARADDR   integral  32    'h0  
#   ARLEN    integral  8     'd0  
#   ARSIZE   integral  3     'd0  
#   ARBURST  integral  2     'd0  
#   RID      integral  4     'd0  
# --------------------------------
# 
# slave driver start of awvalid
# WSTRB in slave driver is:8
# value inside mem is: 216
# slave driver start of awvalid
# WSTRB in slave driver is:1
# value inside mem is: 68
# slave driver start of awvalid
# WSTRB in slave driver is:2
# value inside mem is: 19415
# slave driver start of awvalid
# WSTRB in slave driver is:4
# value inside mem is: 50
# slave driver start of awvalid
# WSTRB in slave driver is:8
# value inside mem is: 157
# slave driver start of awvalid
# WSTRB in slave driver is:1
# value inside mem is: 131
# slave driver start of awvalid
# WSTRB in slave driver is:2
# value inside mem is: 53036
# slave driver start of awvalid
# WSTRB in slave driver is:4
# value inside mem is: 156
# slave driver start of awvalid
# WSTRB in slave driver is:8
# value inside mem is: 228
# slave driver start of awvalid
# WSTRB in slave driver is:1
# value inside mem is: 188
# slave driver start of awvalid
# WSTRB in slave driver is:2
# value inside mem is: 60178
# slave driver start of awvalid
# WSTRB in slave driver is:4
# value inside mem is: 74
# slave driver start of awvalid
# WSTRB in slave driver is:8
# value inside mem is: 26
# slave driver start of awvalid
# WSTRB in slave driver is:1
# value inside mem is: 159
# memory is '{14525169:5142, 14525170:234, 14525171:216, 14525172:68, 14525173:19415, 14525174:50, 14525175:157, 14525176:131, 14525177:53036, 14525178:156, 14525179:228, 14525180:188, 14525181:60178, 14525182:74, 14525183:26, 14525184:159 }
# end of read_data
# start of driver_wresp
# BID sent is  0
# UVM_INFO ../slave_agent_top/slave_monitor.sv(161) @ 775000: uvm_test_top.envh.sagt_top.sagt[0].smonh [slave_monitor] Printing from wresponse collect task --------------------------------
# Name       Type      Size  Value
# --------------------------------
# xtn3       axi_xtn   -     @2007
#   AWID     integral  4     'd0  
#   AWADDR   integral  32    'h0  
#   AWLEN    integral  4     'd0  
#   AWSIZE   integral  3     'd0  
#   AWBURST  integral  2     'd0  
#   WID      integral  4     'd0  
#   BID      integral  4     'd0  
#   BRESP    integral  2     'd0  
#   ARID     integral  4     'd0  
#   ARADDR   integral  32    'h0  
#   ARLEN    integral  8     'd0  
#   ARSIZE   integral  3     'd0  
#   ARBURST  integral  2     'd0  
#   RID      integral  4     'd0  
# --------------------------------
# 
# UVM_INFO ../slave_agent_top/slave_monitor.sv(161) @ 775000: uvm_test_top.envh.sagt_top.sagt[0].smonh [slave_monitor] Printing from wresponse collect task --------------------------------
# Name       Type      Size  Value
# --------------------------------
# xtn3       axi_xtn   -     @2007
#   AWID     integral  4     'd0  
#   AWADDR   integral  32    'h0  
#   AWLEN    integral  4     'd0  
#   AWSIZE   integral  3     'd0  
#   AWBURST  integral  2     'd0  
#   WID      integral  4     'd0  
#   BID      integral  4     'd0  
#   BRESP    integral  2     'd0  
#   ARID     integral  4     'd0  
#   ARADDR   integral  32    'h0  
#   ARLEN    integral  8     'd0  
#   ARSIZE   integral  3     'd0  
#   ARBURST  integral  2     'd0  
#   RID      integral  4     'd0  
# --------------------------------
# 
# end of drive_wdata
# start ofdrive_bresp
# end of drive_wresp
# UVM_INFO ../master_agent_top/master_monitor.sv(165) @ 815000: uvm_test_top.envh.magt_top.magt[0].mmonh [master_monitor] Printing from wresponse collect task --------------------------------
# Name       Type      Size  Value
# --------------------------------
# xtn3       axi_xtn   -     @2057
#   AWID     integral  4     'd0  
#   AWADDR   integral  32    'h0  
#   AWLEN    integral  4     'd0  
#   AWSIZE   integral  3     'd0  
#   AWBURST  integral  2     'd0  
#   WID      integral  4     'd0  
#   BID      integral  4     'd0  
#   BRESP    integral  2     'd0  
#   ARID     integral  4     'd0  
#   ARADDR   integral  32    'h0  
#   ARLEN    integral  8     'd0  
#   ARSIZE   integral  3     'd0  
#   ARBURST  integral  2     'd0  
#   RID      integral  4     'd0  
# --------------------------------
# 
# UVM_INFO ../master_agent_top/master_monitor.sv(182) @ 835000: uvm_test_top.envh.magt_top.magt[0].mmonh [master_monitor] Printing from waddr collect task -----------------------------------
# Name       Type      Size  Value   
# -----------------------------------
# xtn3       axi_xtn   -     @2057   
#   AWID     integral  4     'd0     
#   AWADDR   integral  32    'h0     
#   AWLEN    integral  4     'd0     
#   AWSIZE   integral  3     'd0     
#   AWBURST  integral  2     'd0     
#   WID      integral  4     'd0     
#   BID      integral  4     'd0     
#   BRESP    integral  2     'd0     
#   ARID     integral  4     14      
#   ARADDR   integral  32    'h3af5fb
#   ARLEN    integral  8     'd6     
#   ARSIZE   integral  3     'd0     
#   ARBURST  integral  2     'd1     
#   RID      integral  4     'd0     
# -----------------------------------
# 
# end of drive_bresp
# ** Warning: (vsim-8630) Infinity results from division operation.
#    Time: 845 ns  Iteration: 4  Process: /axi_test_pkg::master_monitor::collect_data/#FORK#82_7feff1cb9ee File: ../tb/axi_xtn.sv Line: 203
# UVM_INFO ../slave_agent_top/slave_monitor.sv(178) @ 855000: uvm_test_top.envh.sagt_top.sagt[0].smonh [slave_monitor] Printing from waddr collect task -----------------------------------
# Name       Type      Size  Value   
# -----------------------------------
# xtn3       axi_xtn   -     @2007   
#   AWID     integral  4     'd0     
#   AWADDR   integral  32    'h0     
#   AWLEN    integral  4     'd0     
#   AWSIZE   integral  3     'd0     
#   AWBURST  integral  2     'd0     
#   WID      integral  4     'd0     
#   BID      integral  4     'd0     
#   BRESP    integral  2     'd0     
#   ARID     integral  4     'd0     
#   ARADDR   integral  32    'h3af5fb
#   ARLEN    integral  8     'd6     
#   ARSIZE   integral  3     'd0     
#   ARBURST  integral  2     'd1     
#   RID      integral  4     'd0     
# -----------------------------------
# 
# end of drive_raddr
# start of drive_rdata
# end of slave_addr
# start of slave_addr
# start of slave_rdata
# ** Warning: (vsim-8630) Infinity results from division operation.
#    Time: 865 ns  Iteration: 3  Process: /axi_test_pkg::slave_monitor::collect_data/#FORK#77_7feff1c9884 File: ../tb/axi_xtn.sv Line: 203
# UVM_INFO ../slave_agent_top/slave_monitor.sv(203) @ 875000: uvm_test_top.envh.sagt_top.sagt[0].smonh [slave_monitor] Printing from wdata collect task -------------------------------------
# Name       Type      Size  Value     
# -------------------------------------
# xtn3       axi_xtn   -     @2007     
#   AWID     integral  4     'd0       
#   AWADDR   integral  32    'h0       
#   AWLEN    integral  4     'd0       
#   AWSIZE   integral  3     'd0       
#   AWBURST  integral  2     'd0       
#   WID      integral  4     'd0       
#   BID      integral  4     'd0       
#   BRESP    integral  2     'd0       
#   ARID     integral  4     'd0       
#   ARADDR   integral  32    'h3af5fb  
#   ARLEN    integral  8     'd6       
#   ARSIZE   integral  3     'd0       
#   ARBURST  integral  2     'd1       
#   RID      integral  4     'd0       
#   RDATA    integral  32    'h1d11a109
#   RRESP    integral  2     'd0       
#   RDATA    integral  32    'h1d11a109
#   RRESP    integral  2     'd0       
#   RDATA    integral  32    'h1d11a109
#   RRESP    integral  2     'd0       
#   RDATA    integral  32    'h1d11a109
#   RRESP    integral  2     'd0       
#   RDATA    integral  32    'h1d11a109
#   RRESP    integral  2     'd0       
#   RDATA    integral  32    'h1d11a109
#   RRESP    integral  2     'd0       
#   RDATA    integral  32    'h1d11a109
#   RRESP    integral  2     'd0       
# -------------------------------------
# 
# UVM_INFO ../master_agent_top/master_monitor.sv(207) @ 885000: uvm_test_top.envh.magt_top.magt[0].mmonh [master_monitor] Printing from wdata collect task -------------------------------------
# Name       Type      Size  Value     
# -------------------------------------
# xtn3       axi_xtn   -     @2057     
#   AWID     integral  4     'd0       
#   AWADDR   integral  32    'h0       
#   AWLEN    integral  4     'd0       
#   AWSIZE   integral  3     'd0       
#   AWBURST  integral  2     'd0       
#   WID      integral  4     'd0       
#   BID      integral  4     'd0       
#   BRESP    integral  2     'd0       
#   ARID     integral  4     14        
#   ARADDR   integral  32    'h3af5fb  
#   ARLEN    integral  8     'd6       
#   ARSIZE   integral  3     'd0       
#   ARBURST  integral  2     'd1       
#   RID      integral  4     14        
#   RDATA    integral  32    'h1d11a109
#   RRESP    integral  2     'd0       
#   RDATA    integral  32    'h1d11a109
#   RRESP    integral  2     'd0       
#   RDATA    integral  32    'h1d11a109
#   RRESP    integral  2     'd0       
#   RDATA    integral  32    'h1d11a109
#   RRESP    integral  2     'd0       
#   RDATA    integral  32    'h1d11a109
#   RRESP    integral  2     'd0       
#   RDATA    integral  32    'h1d11a109
#   RRESP    integral  2     'd0       
#   RDATA    integral  32    'h1d11a109
#   RRESP    integral  2     'd0       
# -------------------------------------
# 
# end of slave_rdata
# end of drive_rdata
# UVM_INFO ../master_agent_top/master_monitor.sv(104) @ 1165000: uvm_test_top.envh.magt_top.magt[1].mmonh [master_monitor] Printing from waddr collect task ------------------------------------
# Name       Type      Size  Value    
# ------------------------------------
# xtn        axi_xtn   -     @2043    
#   AWID     integral  4     'd2      
#   AWADDR   integral  32    'h1d19f81
#   AWLEN    integral  4     12       
#   AWSIZE   integral  3     'd2      
#   AWBURST  integral  2     'd1      
#   WID      integral  4     'd0      
#   BID      integral  4     'd0      
#   BRESP    integral  2     'd0      
#   ARID     integral  4     'd0      
#   ARADDR   integral  32    'h0      
#   ARLEN    integral  8     'd0      
#   ARSIZE   integral  3     'd0      
#   ARBURST  integral  2     'd0      
#   RID      integral  4     'd0      
# ------------------------------------
# 
# ** Warning: (vsim-8630) Infinity results from division operation.
#    Time: 1175 ns  Iteration: 4  Process: /axi_test_pkg::master_monitor::collect_data/#FORK#59_7feff1c9df1 File: ../tb/axi_xtn.sv Line: 136
# UVM_INFO ../slave_agent_top/slave_monitor.sv(100) @ 1185000: uvm_test_top.envh.sagt_top.sagt[1].smonh [slave_monitor] Printing from waddr collect task ------------------------------------
# Name       Type      Size  Value    
# ------------------------------------
# xtn        axi_xtn   -     @1977    
#   AWID     integral  4     'd0      
#   AWADDR   integral  32    'h1d19f81
#   AWLEN    integral  4     12       
#   AWSIZE   integral  3     'd2      
#   AWBURST  integral  2     'd1      
#   WID      integral  4     'd0      
#   BID      integral  4     'd0      
#   BRESP    integral  2     'd0      
#   ARID     integral  4     'd0      
#   ARADDR   integral  32    'h0      
#   ARLEN    integral  8     'd0      
#   ARSIZE   integral  3     'd0      
#   ARBURST  integral  2     'd0      
#   RID      integral  4     'd0      
# ------------------------------------
# 
# ** Warning: (vsim-8630) Infinity results from division operation.
#    Time: 1195 ns  Iteration: 3  Process: /axi_test_pkg::slave_monitor::collect_data/#FORK#55_7feff49dc74 File: ../tb/axi_xtn.sv Line: 136
# end of drive_awadrr
# UVM_INFO ../master_agent_top/master_driver.sv(46) @ 1215000: uvm_test_top.envh.magt_top.magt[1].mdrvh [master_driver] Prinitng from driver ---------------------------------------------------------------------------------------------------
# Name                           Type      Size  Value                                               
# ---------------------------------------------------------------------------------------------------
# req                            axi_xtn   -     @2086                                               
#   begin_time                   time      64    0                                                   
#   depth                        int       32    'd2                                                 
#   parent sequence (name)       string    10    incr_seq01                                          
#   parent sequence (full name)  string    52    uvm_test_top.envh.magt_top.magt[1].mseqrh.incr_seq01
#   sequencer                    string    41    uvm_test_top.envh.magt_top.magt[1].mseqrh           
#   AWID                         integral  4     'd2                                                 
#   AWADDR                       integral  32    'h1d19f81                                           
#   AWLEN                        integral  4     12                                                  
#   AWSIZE                       integral  3     'd2                                                 
#   AWBURST                      integral  2     'd1                                                 
#   WID                          integral  4     'd2                                                 
#   WDATA                        integral  32    'ha2fec1a3                                          
#   WSTRB                        integral  4     'b1110                                              
#   WLAST                        integral  1     'dX                                                 
#   WDATA                        integral  32    'ha3ce98ec                                          
#   WSTRB                        integral  4     'b1111                                              
#   WLAST                        integral  1     'dX                                                 
#   WDATA                        integral  32    'hcc468759                                          
#   WSTRB                        integral  4     'b1111                                              
#   WLAST                        integral  1     'dX                                                 
#   WDATA                        integral  32    'h1c6711c5                                          
#   WSTRB                        integral  4     'b1111                                              
#   WLAST                        integral  1     'dX                                                 
#   WDATA                        integral  32    'h4d7976c9                                          
#   WSTRB                        integral  4     'b1111                                              
#   WLAST                        integral  1     'dX                                                 
#   WDATA                        integral  32    'h636d23dc                                          
#   WSTRB                        integral  4     'b1111                                              
#   WLAST                        integral  1     'dX                                                 
#   WDATA                        integral  32    'hf16ff86f                                          
#   WSTRB                        integral  4     'b1111                                              
#   WLAST                        integral  1     'dX                                                 
#   WDATA                        integral  32    'h19be0877                                          
#   WSTRB                        integral  4     'b1111                                              
#   WLAST                        integral  1     'dX                                                 
#   WDATA                        integral  32    'h8025afe1                                          
#   WSTRB                        integral  4     'b1111                                              
#   WLAST                        integral  1     'dX                                                 
#   WDATA                        integral  32    'h3e8cd33                                           
#   WSTRB                        integral  4     'b1111                                              
#   WLAST                        integral  1     'dX                                                 
#   WDATA                        integral  32    'hc177b25e                                          
#   WSTRB                        integral  4     'b1111                                              
#   WLAST                        integral  1     'dX                                                 
#   WDATA                        integral  32    'h8edca827                                          
#   WSTRB                        integral  4     'b1111                                              
#   WLAST                        integral  1     'dX                                                 
#   WDATA                        integral  32    'hce4874b2                                          
#   WSTRB                        integral  4     'b1111                                              
#   WLAST                        integral  1     'dX                                                 
#   BID                          integral  4     'd2                                                 
#   BRESP                        integral  2     'd0                                                 
#   ARID                         integral  4     'd3                                                 
#   ARADDR                       integral  32    'h190259d                                           
#   ARLEN                        integral  8     'd15                                                
#   ARSIZE                       integral  3     'd0                                                 
#   ARBURST                      integral  2     'd1                                                 
#   RID                          integral  4     'd3                                                 
#   RDATA                        integral  32    'h5f5a2653                                          
#   RRESP                        integral  2     'd0                                                 
#   RDATA                        integral  32    'h60c4f61d                                          
#   RRESP                        integral  2     'd0                                                 
#   RDATA                        integral  32    'h8fe49afb                                          
#   RRESP                        integral  2     'd0                                                 
#   RDATA                        integral  32    'hd2adb35b                                          
#   RRESP                        integral  2     'd0                                                 
#   RDATA                        integral  32    'hcd8cad6a                                          
#   RRESP                        integral  2     'd0                                                 
#   RDATA                        integral  32    'h4e80bfad                                          
#   RRESP                        integral  2     'd0                                                 
#   RDATA                        integral  32    'h616c33b6                                          
#   RRESP                        integral  2     'd0                                                 
#   RDATA                        integral  32    'h22481991                                          
#   RRESP                        integral  2     'd0                                                 
#   RDATA                        integral  32    'h4a8c2dea                                          
#   RRESP                        integral  2     'd0                                                 
#   RDATA                        integral  32    'haec6b7af                                          
#   RRESP                        integral  2     'd0                                                 
#   RDATA                        integral  32    'hf602bde1                                          
#   RRESP                        integral  2     'd0                                                 
#   RDATA                        integral  32    'hf4d6b5ed                                          
#   RRESP                        integral  2     'd0                                                 
#   RDATA                        integral  32    'h70c94080                                          
#   RRESP                        integral  2     'd0                                                 
#   RDATA                        integral  32    'h3dfa5e72                                          
#   RRESP                        integral  2     'd0                                                 
#   RDATA                        integral  32    'h66e997c6                                          
#   RRESP                        integral  2     'd0                                                 
#   RDATA                        integral  32    'hb5ff058e                                          
#   RRESP                        integral  2     'd0                                                 
# ---------------------------------------------------------------------------------------------------
# 
# start ofdrive_wdata
# end of read_awaddr
# start of read_awaddr
# start of read_data
# ** Warning: (vsim-8630) Infinity results from division operation.
#    Time: 1225 ns  Iteration: 3  Process: /axi_test_pkg::slave_driver::drive/#FORK#58_7feff49dcd1 File: ../tb/axi_xtn.sv Line: 136
# aligned:1d19f80
# address calculated in slave side '{30515073, 30515076, 30515080, 30515084, 30515088, 30515092, 30515096, 30515100, 30515104, 30515108, 30515112, 30515116, 30515120}
# slave driver start of awvalid
# WSTRB in slave driver is:14
# value inside mem is: 10682049
# UVM_INFO ../master_agent_top/master_monitor.sv(156) @ 1245000: uvm_test_top.envh.magt_top.magt[1].mmonh [master_monitor] Printing from wdata collect task -------------------------------------
# Name       Type      Size  Value     
# -------------------------------------
# xtn        axi_xtn   -     @2367     
#   AWID     integral  4     'd0       
#   AWADDR   integral  32    'h0       
#   AWLEN    integral  4     'd0       
#   AWSIZE   integral  3     'd0       
#   AWBURST  integral  2     'd0       
#   WID      integral  4     'd2       
#   WDATA    integral  32    'ha2fec1a3
#   WSTRB    integral  4     'b1110    
#   WLAST    integral  1     'd0       
#   BID      integral  4     'd0       
#   BRESP    integral  2     'd0       
#   ARID     integral  4     'd0       
#   ARADDR   integral  32    'h0       
#   ARLEN    integral  8     'd0       
#   ARSIZE   integral  3     'd0       
#   ARBURST  integral  2     'd0       
#   RID      integral  4     'd0       
# -------------------------------------
# 
# UVM_INFO ../slave_agent_top/slave_monitor.sv(152) @ 1255000: uvm_test_top.envh.sagt_top.sagt[1].smonh [slave_monitor] Printing from wdata collect task -------------------------------------
# Name       Type      Size  Value     
# -------------------------------------
# xtn        axi_xtn   -     @2375     
#   AWID     integral  4     'd0       
#   AWADDR   integral  32    'h0       
#   AWLEN    integral  4     'd0       
#   AWSIZE   integral  3     'd0       
#   AWBURST  integral  2     'd0       
#   WID      integral  4     'd0       
#   WDATA    integral  32    'ha2fec1a3
#   WSTRB    integral  4     'b1110    
#   WLAST    integral  1     'd0       
#   BID      integral  4     'd0       
#   BRESP    integral  2     'd0       
#   ARID     integral  4     'd0       
#   ARADDR   integral  32    'h0       
#   ARLEN    integral  8     'd0       
#   ARSIZE   integral  3     'd0       
#   ARBURST  integral  2     'd0       
#   RID      integral  4     'd0       
# -------------------------------------
# 
# slave driver start of awvalid
# WSTRB in slave driver is:15
# value inside mem is: -1546741524
# slave driver start of awvalid
# WSTRB in slave driver is:15
# value inside mem is: -867793063
# slave driver start of awvalid
# WSTRB in slave driver is:15
# value inside mem is: 476516805
# slave driver start of awvalid
# WSTRB in slave driver is:15
# value inside mem is: 1299805897
# slave driver start of awvalid
# WSTRB in slave driver is:15
# value inside mem is: 1668096988
# slave driver start of awvalid
# WSTRB in slave driver is:15
# value inside mem is: -244320145
# slave driver start of awvalid
# WSTRB in slave driver is:15
# value inside mem is: 431884407
# slave driver start of awvalid
# WSTRB in slave driver is:15
# value inside mem is: -2145013791
# slave driver start of awvalid
# WSTRB in slave driver is:15
# value inside mem is: 65588531
# slave driver start of awvalid
# WSTRB in slave driver is:15
# value inside mem is: -1049120162
# slave driver start of awvalid
# WSTRB in slave driver is:15
# value inside mem is: -1898141657
# slave driver start of awvalid
# WSTRB in slave driver is:15
# value inside mem is: -834112334
# memory is '{30515073:10682049, 30515076:-1546741524, 30515080:-867793063, 30515084:476516805, 30515088:1299805897, 30515092:1668096988, 30515096:-244320145, 30515100:431884407, 30515104:-2145013791, 30515108:65588531, 30515112:-1049120162, 30515116:-1898141657, 30515120:-834112334 }
# end of read_data
# start of driver_wresp
# BID sent is  0
# UVM_INFO ../slave_agent_top/slave_monitor.sv(161) @ 1745000: uvm_test_top.envh.sagt_top.sagt[1].smonh [slave_monitor] Printing from wresponse collect task --------------------------------
# Name       Type      Size  Value
# --------------------------------
# xtn3       axi_xtn   -     @1985
#   AWID     integral  4     'd0  
#   AWADDR   integral  32    'h0  
#   AWLEN    integral  4     'd0  
#   AWSIZE   integral  3     'd0  
#   AWBURST  integral  2     'd0  
#   WID      integral  4     'd0  
#   BID      integral  4     'd0  
#   BRESP    integral  2     'd0  
#   ARID     integral  4     'd0  
#   ARADDR   integral  32    'h0  
#   ARLEN    integral  8     'd0  
#   ARSIZE   integral  3     'd0  
#   ARBURST  integral  2     'd0  
#   RID      integral  4     'd0  
# --------------------------------
# 
# UVM_INFO ../slave_agent_top/slave_monitor.sv(161) @ 1745000: uvm_test_top.envh.sagt_top.sagt[1].smonh [slave_monitor] Printing from wresponse collect task --------------------------------
# Name       Type      Size  Value
# --------------------------------
# xtn3       axi_xtn   -     @1985
#   AWID     integral  4     'd0  
#   AWADDR   integral  32    'h0  
#   AWLEN    integral  4     'd0  
#   AWSIZE   integral  3     'd0  
#   AWBURST  integral  2     'd0  
#   WID      integral  4     'd0  
#   BID      integral  4     'd0  
#   BRESP    integral  2     'd0  
#   ARID     integral  4     'd0  
#   ARADDR   integral  32    'h0  
#   ARLEN    integral  8     'd0  
#   ARSIZE   integral  3     'd0  
#   ARBURST  integral  2     'd0  
#   RID      integral  4     'd0  
# --------------------------------
# 
# end of drive_wdata
# start ofdrive_bresp
# end of drive_wresp
# UVM_INFO ../master_agent_top/master_monitor.sv(165) @ 1765000: uvm_test_top.envh.magt_top.magt[1].mmonh [master_monitor] Printing from wresponse collect task --------------------------------
# Name       Type      Size  Value
# --------------------------------
# xtn3       axi_xtn   -     @2047
#   AWID     integral  4     'd0  
#   AWADDR   integral  32    'h0  
#   AWLEN    integral  4     'd0  
#   AWSIZE   integral  3     'd0  
#   AWBURST  integral  2     'd0  
#   WID      integral  4     'd0  
#   BID      integral  4     'd0  
#   BRESP    integral  2     'd0  
#   ARID     integral  4     'd0  
#   ARADDR   integral  32    'h0  
#   ARLEN    integral  8     'd0  
#   ARSIZE   integral  3     'd0  
#   ARBURST  integral  2     'd0  
#   RID      integral  4     'd0  
# --------------------------------
# 
# UVM_INFO ../master_agent_top/master_monitor.sv(182) @ 1785000: uvm_test_top.envh.magt_top.magt[1].mmonh [master_monitor] Printing from waddr collect task ------------------------------------
# Name       Type      Size  Value    
# ------------------------------------
# xtn3       axi_xtn   -     @2047    
#   AWID     integral  4     'd0      
#   AWADDR   integral  32    'h0      
#   AWLEN    integral  4     'd0      
#   AWSIZE   integral  3     'd0      
#   AWBURST  integral  2     'd0      
#   WID      integral  4     'd0      
#   BID      integral  4     'd0      
#   BRESP    integral  2     'd0      
#   ARID     integral  4     'd3      
#   ARADDR   integral  32    'h190259d
#   ARLEN    integral  8     'd15     
#   ARSIZE   integral  3     'd0      
#   ARBURST  integral  2     'd1      
#   RID      integral  4     'd0      
# ------------------------------------
# 
# ** Warning: (vsim-8630) Infinity results from division operation.
#    Time: 1795 ns  Iteration: 4  Process: /axi_test_pkg::master_monitor::collect_data/#FORK#82_7feff1c9e55 File: ../tb/axi_xtn.sv Line: 203
# UVM_INFO ../slave_agent_top/slave_monitor.sv(178) @ 1805000: uvm_test_top.envh.sagt_top.sagt[1].smonh [slave_monitor] Printing from waddr collect task ------------------------------------
# Name       Type      Size  Value    
# ------------------------------------
# xtn3       axi_xtn   -     @1985    
#   AWID     integral  4     'd0      
#   AWADDR   integral  32    'h0      
#   AWLEN    integral  4     'd0      
#   AWSIZE   integral  3     'd0      
#   AWBURST  integral  2     'd0      
#   WID      integral  4     'd0      
#   BID      integral  4     'd0      
#   BRESP    integral  2     'd0      
#   ARID     integral  4     'd0      
#   ARADDR   integral  32    'h190259d
#   ARLEN    integral  8     'd15     
#   ARSIZE   integral  3     'd0      
#   ARBURST  integral  2     'd1      
#   RID      integral  4     'd0      
# ------------------------------------
# 
# end of drive_bresp
# ** Warning: (vsim-8630) Infinity results from division operation.
#    Time: 1815 ns  Iteration: 3  Process: /axi_test_pkg::slave_monitor::collect_data/#FORK#77_7feff04b79e File: ../tb/axi_xtn.sv Line: 203
# end of drive_raddr
# start of drive_rdata
# end of slave_addr
# start of slave_addr
# start of slave_rdata
# UVM_INFO ../slave_agent_top/slave_monitor.sv(203) @ 1855000: uvm_test_top.envh.sagt_top.sagt[1].smonh [slave_monitor] Printing from wdata collect task -------------------------------------
# Name       Type      Size  Value     
# -------------------------------------
# xtn3       axi_xtn   -     @1985     
#   AWID     integral  4     'd0       
#   AWADDR   integral  32    'h0       
#   AWLEN    integral  4     'd0       
#   AWSIZE   integral  3     'd0       
#   AWBURST  integral  2     'd0       
#   WID      integral  4     'd0       
#   BID      integral  4     'd0       
#   BRESP    integral  2     'd0       
#   ARID     integral  4     'd0       
#   ARADDR   integral  32    'h190259d 
#   ARLEN    integral  8     'd15      
#   ARSIZE   integral  3     'd0       
#   ARBURST  integral  2     'd1       
#   RID      integral  4     'd0       
#   RDATA    integral  32    'h1fde955b
#   RRESP    integral  2     'd0       
#   RDATA    integral  32    'h1fde955b
#   RRESP    integral  2     'd0       
#   RDATA    integral  32    'h1fde955b
#   RRESP    integral  2     'd0       
#   RDATA    integral  32    'h1fde955b
#   RRESP    integral  2     'd0       
#   RDATA    integral  32    'h1fde955b
#   RRESP    integral  2     'd0       
#   RDATA    integral  32    'h1fde955b
#   RRESP    integral  2     'd0       
#   RDATA    integral  32    'h1fde955b
#   RRESP    integral  2     'd0       
#   RDATA    integral  32    'h1fde955b
#   RRESP    integral  2     'd0       
#   RDATA    integral  32    'h1fde955b
#   RRESP    integral  2     'd0       
#   RDATA    integral  32    'h1fde955b
#   RRESP    integral  2     'd0       
#   RDATA    integral  32    'h1fde955b
#   RRESP    integral  2     'd0       
#   RDATA    integral  32    'h1fde955b
#   RRESP    integral  2     'd0       
#   RDATA    integral  32    'h1fde955b
#   RRESP    integral  2     'd0       
#   RDATA    integral  32    'h1fde955b
#   RRESP    integral  2     'd0       
#   RDATA    integral  32    'h1fde955b
#   RRESP    integral  2     'd0       
#   RDATA    integral  32    'h1fde955b
#   RRESP    integral  2     'd0       
# -------------------------------------
# 
# UVM_INFO ../master_agent_top/master_monitor.sv(207) @ 1865000: uvm_test_top.envh.magt_top.magt[1].mmonh [master_monitor] Printing from wdata collect task -------------------------------------
# Name       Type      Size  Value     
# -------------------------------------
# xtn3       axi_xtn   -     @2047     
#   AWID     integral  4     'd0       
#   AWADDR   integral  32    'h0       
#   AWLEN    integral  4     'd0       
#   AWSIZE   integral  3     'd0       
#   AWBURST  integral  2     'd0       
#   WID      integral  4     'd0       
#   BID      integral  4     'd0       
#   BRESP    integral  2     'd0       
#   ARID     integral  4     'd3       
#   ARADDR   integral  32    'h190259d 
#   ARLEN    integral  8     'd15      
#   ARSIZE   integral  3     'd0       
#   ARBURST  integral  2     'd1       
#   RID      integral  4     'd3       
#   RDATA    integral  32    'h1fde955b
#   RRESP    integral  2     'd0       
#   RDATA    integral  32    'h1fde955b
#   RRESP    integral  2     'd0       
#   RDATA    integral  32    'h1fde955b
#   RRESP    integral  2     'd0       
#   RDATA    integral  32    'h1fde955b
#   RRESP    integral  2     'd0       
#   RDATA    integral  32    'h1fde955b
#   RRESP    integral  2     'd0       
#   RDATA    integral  32    'h1fde955b
#   RRESP    integral  2     'd0       
#   RDATA    integral  32    'h1fde955b
#   RRESP    integral  2     'd0       
#   RDATA    integral  32    'h1fde955b
#   RRESP    integral  2     'd0       
#   RDATA    integral  32    'h1fde955b
#   RRESP    integral  2     'd0       
#   RDATA    integral  32    'h1fde955b
#   RRESP    integral  2     'd0       
#   RDATA    integral  32    'h1fde955b
#   RRESP    integral  2     'd0       
#   RDATA    integral  32    'h1fde955b
#   RRESP    integral  2     'd0       
#   RDATA    integral  32    'h1fde955b
#   RRESP    integral  2     'd0       
#   RDATA    integral  32    'h1fde955b
#   RRESP    integral  2     'd0       
#   RDATA    integral  32    'h1fde955b
#   RRESP    integral  2     'd0       
#   RDATA    integral  32    'h1fde955b
#   RRESP    integral  2     'd0       
# -------------------------------------
# 
# end of slave_rdata
# end of drive_rdata
# UVM_INFO ../master_agent_top/master_monitor.sv(104) @ 2585000: uvm_test_top.envh.magt_top.magt[2].mmonh [master_monitor] Printing from waddr collect task ------------------------------------
# Name       Type      Size  Value    
# ------------------------------------
# xtn        axi_xtn   -     @2033    
#   AWID     integral  4     11       
#   AWADDR   integral  32    'h260c3a1
#   AWLEN    integral  4     11       
#   AWSIZE   integral  3     'd0      
#   AWBURST  integral  2     'd1      
#   WID      integral  4     'd0      
#   BID      integral  4     'd0      
#   BRESP    integral  2     'd0      
#   ARID     integral  4     'd0      
#   ARADDR   integral  32    'h0      
#   ARLEN    integral  8     'd0      
#   ARSIZE   integral  3     'd0      
#   ARBURST  integral  2     'd0      
#   RID      integral  4     'd0      
# ------------------------------------
# 
# ** Warning: (vsim-8630) Infinity results from division operation.
#    Time: 2595 ns  Iteration: 4  Process: /axi_test_pkg::master_monitor::collect_data/#FORK#59_7feff1c9c40 File: ../tb/axi_xtn.sv Line: 136
# UVM_INFO ../slave_agent_top/slave_monitor.sv(100) @ 2605000: uvm_test_top.envh.sagt_top.sagt[2].smonh [slave_monitor] Printing from waddr collect task ------------------------------------
# Name       Type      Size  Value    
# ------------------------------------
# xtn        axi_xtn   -     @1955    
#   AWID     integral  4     'd0      
#   AWADDR   integral  32    'h260c3a1
#   AWLEN    integral  4     11       
#   AWSIZE   integral  3     'd0      
#   AWBURST  integral  2     'd1      
#   WID      integral  4     'd0      
#   BID      integral  4     'd0      
#   BRESP    integral  2     'd0      
#   ARID     integral  4     'd0      
#   ARADDR   integral  32    'h0      
#   ARLEN    integral  8     'd0      
#   ARSIZE   integral  3     'd0      
#   ARBURST  integral  2     'd0      
#   RID      integral  4     'd0      
# ------------------------------------
# 
# end of drive_awadrr
# UVM_INFO ../master_agent_top/master_driver.sv(46) @ 2605000: uvm_test_top.envh.magt_top.magt[2].mdrvh [master_driver] Prinitng from driver ---------------------------------------------------------------------------------------------------
# Name                           Type      Size  Value                                               
# ---------------------------------------------------------------------------------------------------
# req                            axi_xtn   -     @2090                                               
#   begin_time                   time      64    0                                                   
#   depth                        int       32    'd2                                                 
#   parent sequence (name)       string    10    incr_seq10                                          
#   parent sequence (full name)  string    52    uvm_test_top.envh.magt_top.magt[2].mseqrh.incr_seq10
#   sequencer                    string    41    uvm_test_top.envh.magt_top.magt[2].mseqrh           
#   AWID                         integral  4     11                                                  
#   AWADDR                       integral  32    'h260c3a1                                           
#   AWLEN                        integral  4     11                                                  
#   AWSIZE                       integral  3     'd0                                                 
#   AWBURST                      integral  2     'd1                                                 
#   WID                          integral  4     11                                                  
#   WDATA                        integral  32    'h93661a04                                          
#   WSTRB                        integral  4     'b10                                                
#   WLAST                        integral  1     'dX                                                 
#   WDATA                        integral  32    'h56c42817                                          
#   WSTRB                        integral  4     'b100                                               
#   WLAST                        integral  1     'dX                                                 
#   WDATA                        integral  32    'h4ab2c011                                          
#   WSTRB                        integral  4     'b1000                                              
#   WLAST                        integral  1     'dX                                                 
#   WDATA                        integral  32    'h859f251c                                          
#   WSTRB                        integral  4     'b1                                                 
#   WLAST                        integral  1     'dX                                                 
#   WDATA                        integral  32    'he9738bee                                          
#   WSTRB                        integral  4     'b10                                                
#   WLAST                        integral  1     'dX                                                 
#   WDATA                        integral  32    'h45aaaed7                                          
#   WSTRB                        integral  4     'b100                                               
#   WLAST                        integral  1     'dX                                                 
#   WDATA                        integral  32    'h788ebfcf                                          
#   WSTRB                        integral  4     'b1000                                              
#   WLAST                        integral  1     'dX                                                 
#   WDATA                        integral  32    'h2fe6f7ea                                          
#   WSTRB                        integral  4     'b1                                                 
#   WLAST                        integral  1     'dX                                                 
#   WDATA                        integral  32    'he5c19dc4                                          
#   WSTRB                        integral  4     'b10                                                
#   WLAST                        integral  1     'dX                                                 
#   WDATA                        integral  32    'h8a1148a8                                          
#   WSTRB                        integral  4     'b100                                               
#   WLAST                        integral  1     'dX                                                 
#   WDATA                        integral  32    'hb478103c                                          
#   WSTRB                        integral  4     'b1000                                              
#   WLAST                        integral  1     'dX                                                 
#   WDATA                        integral  32    'h44ee21a2                                          
#   WSTRB                        integral  4     'b1                                                 
#   WLAST                        integral  1     'dX                                                 
#   BID                          integral  4     11                                                  
#   BRESP                        integral  2     'd0                                                 
#   ARID                         integral  4     'd3                                                 
#   ARADDR                       integral  32    'h27f84b6                                           
#   ARLEN                        integral  8     'd3                                                 
#   ARSIZE                       integral  3     'd1                                                 
#   ARBURST                      integral  2     'd1                                                 
#   RID                          integral  4     'd3                                                 
#   RDATA                        integral  32    'he701006b                                          
#   RRESP                        integral  2     'd0                                                 
#   RDATA                        integral  32    'hf407c044                                          
#   RRESP                        integral  2     'd0                                                 
#   RDATA                        integral  32    'h8772cd1d                                          
#   RRESP                        integral  2     'd0                                                 
#   RDATA                        integral  32    'h1a8ee79c                                          
#   RRESP                        integral  2     'd0                                                 
# ---------------------------------------------------------------------------------------------------
# 
# start ofdrive_wdata
# ** Warning: (vsim-8630) Infinity results from division operation.
#    Time: 2615 ns  Iteration: 3  Process: /axi_test_pkg::slave_monitor::collect_data/#FORK#55_7feff49ddd4 File: ../tb/axi_xtn.sv Line: 136
# UVM_INFO ../master_agent_top/master_monitor.sv(156) @ 2635000: uvm_test_top.envh.magt_top.magt[2].mmonh [master_monitor] Printing from wdata collect task --------------------------------
# Name       Type      Size  Value
# --------------------------------
# xtn        axi_xtn   -     @2420
#   AWID     integral  4     'd0  
#   AWADDR   integral  32    'h0  
#   AWLEN    integral  4     'd0  
#   AWSIZE   integral  3     'd0  
#   AWBURST  integral  2     'd0  
#   WID      integral  4     11   
#   WDATA    integral  32    'h1a 
#   WSTRB    integral  4     'b10 
#   WLAST    integral  1     'd0  
#   BID      integral  4     'd0  
#   BRESP    integral  2     'd0  
#   ARID     integral  4     'd0  
#   ARADDR   integral  32    'h0  
#   ARLEN    integral  8     'd0  
#   ARSIZE   integral  3     'd0  
#   ARBURST  integral  2     'd0  
#   RID      integral  4     'd0  
# --------------------------------
# 
# end of read_awaddr
# start of read_awaddr
# start of read_data
# ** Warning: (vsim-8630) Infinity results from division operation.
#    Time: 2655 ns  Iteration: 3  Process: /axi_test_pkg::slave_driver::drive/#FORK#58_7feff49de30 File: ../tb/axi_xtn.sv Line: 136
# aligned:260c3a1
# address calculated in slave side '{39895969, 39895970, 39895971, 39895972, 39895973, 39895974, 39895975, 39895976, 39895977, 39895978, 39895979, 39895980}
# slave driver start of awvalid
# WSTRB in slave driver is:2
# value inside mem is: 6660
# slave driver start of awvalid
# WSTRB in slave driver is:4
# value inside mem is: 196
# UVM_INFO ../slave_agent_top/slave_monitor.sv(152) @ 2675000: uvm_test_top.envh.sagt_top.sagt[2].smonh [slave_monitor] Printing from wdata collect task --------------------------------
# Name       Type      Size  Value
# --------------------------------
# xtn        axi_xtn   -     @2429
#   AWID     integral  4     'd0  
#   AWADDR   integral  32    'h0  
#   AWLEN    integral  4     'd0  
#   AWSIZE   integral  3     'd0  
#   AWBURST  integral  2     'd0  
#   WID      integral  4     'd0  
#   WDATA    integral  32    'h1a 
#   WSTRB    integral  4     'b10 
#   WLAST    integral  1     'd0  
#   BID      integral  4     'd0  
#   BRESP    integral  2     'd0  
#   ARID     integral  4     'd0  
#   ARADDR   integral  32    'h0  
#   ARLEN    integral  8     'd0  
#   ARSIZE   integral  3     'd0  
#   ARBURST  integral  2     'd0  
#   RID      integral  4     'd0  
# --------------------------------
# 
# slave driver start of awvalid
# WSTRB in slave driver is:8
# value inside mem is: 74
# slave driver start of awvalid
# WSTRB in slave driver is:1
# value inside mem is: 28
# slave driver start of awvalid
# WSTRB in slave driver is:2
# value inside mem is: 35822
# slave driver start of awvalid
# WSTRB in slave driver is:4
# value inside mem is: 170
# slave driver start of awvalid
# WSTRB in slave driver is:8
# value inside mem is: 120
# slave driver start of awvalid
# WSTRB in slave driver is:1
# value inside mem is: 234
# slave driver start of awvalid
# WSTRB in slave driver is:2
# value inside mem is: 40388
# slave driver start of awvalid
# WSTRB in slave driver is:4
# value inside mem is: 17
# slave driver start of awvalid
# WSTRB in slave driver is:8
# value inside mem is: 180
# slave driver start of awvalid
# WSTRB in slave driver is:1
# value inside mem is: 162
# memory is '{39895969:6660, 39895970:196, 39895971:74, 39895972:28, 39895973:35822, 39895974:170, 39895975:120, 39895976:234, 39895977:40388, 39895978:17, 39895979:180, 39895980:162 }
# end of read_data
# start of driver_wresp
# BID sent is  0
# UVM_INFO ../slave_agent_top/slave_monitor.sv(161) @ 3075000: uvm_test_top.envh.sagt_top.sagt[2].smonh [slave_monitor] Printing from wresponse collect task --------------------------------
# Name       Type      Size  Value
# --------------------------------
# xtn3       axi_xtn   -     @1963
#   AWID     integral  4     'd0  
#   AWADDR   integral  32    'h0  
#   AWLEN    integral  4     'd0  
#   AWSIZE   integral  3     'd0  
#   AWBURST  integral  2     'd0  
#   WID      integral  4     'd0  
#   BID      integral  4     'd0  
#   BRESP    integral  2     'd0  
#   ARID     integral  4     'd0  
#   ARADDR   integral  32    'h0  
#   ARLEN    integral  8     'd0  
#   ARSIZE   integral  3     'd0  
#   ARBURST  integral  2     'd0  
#   RID      integral  4     'd0  
# --------------------------------
# 
# UVM_INFO ../slave_agent_top/slave_monitor.sv(161) @ 3075000: uvm_test_top.envh.sagt_top.sagt[2].smonh [slave_monitor] Printing from wresponse collect task --------------------------------
# Name       Type      Size  Value
# --------------------------------
# xtn3       axi_xtn   -     @1963
#   AWID     integral  4     'd0  
#   AWADDR   integral  32    'h0  
#   AWLEN    integral  4     'd0  
#   AWSIZE   integral  3     'd0  
#   AWBURST  integral  2     'd0  
#   WID      integral  4     'd0  
#   BID      integral  4     'd0  
#   BRESP    integral  2     'd0  
#   ARID     integral  4     'd0  
#   ARADDR   integral  32    'h0  
#   ARLEN    integral  8     'd0  
#   ARSIZE   integral  3     'd0  
#   ARBURST  integral  2     'd0  
#   RID      integral  4     'd0  
# --------------------------------
# 
# end of drive_wresp
# end of drive_wdata
# start ofdrive_bresp
# UVM_INFO ../master_agent_top/master_monitor.sv(165) @ 3125000: uvm_test_top.envh.magt_top.magt[2].mmonh [master_monitor] Printing from wresponse collect task --------------------------------
# Name       Type      Size  Value
# --------------------------------
# xtn3       axi_xtn   -     @2037
#   AWID     integral  4     'd0  
#   AWADDR   integral  32    'h0  
#   AWLEN    integral  4     'd0  
#   AWSIZE   integral  3     'd0  
#   AWBURST  integral  2     'd0  
#   WID      integral  4     'd0  
#   BID      integral  4     'd0  
#   BRESP    integral  2     'd0  
#   ARID     integral  4     'd0  
#   ARADDR   integral  32    'h0  
#   ARLEN    integral  8     'd0  
#   ARSIZE   integral  3     'd0  
#   ARBURST  integral  2     'd0  
#   RID      integral  4     'd0  
# --------------------------------
# 
# end of drive_bresp
# UVM_INFO ../master_agent_top/master_monitor.sv(182) @ 3145000: uvm_test_top.envh.magt_top.magt[2].mmonh [master_monitor] Printing from waddr collect task ------------------------------------
# Name       Type      Size  Value    
# ------------------------------------
# xtn3       axi_xtn   -     @2037    
#   AWID     integral  4     'd0      
#   AWADDR   integral  32    'h0      
#   AWLEN    integral  4     'd0      
#   AWSIZE   integral  3     'd0      
#   AWBURST  integral  2     'd0      
#   WID      integral  4     'd0      
#   BID      integral  4     'd0      
#   BRESP    integral  2     'd0      
#   ARID     integral  4     'd3      
#   ARADDR   integral  32    'h27f84b6
#   ARLEN    integral  8     'd3      
#   ARSIZE   integral  3     'd1      
#   ARBURST  integral  2     'd1      
#   RID      integral  4     'd0      
# ------------------------------------
# 
# ** Warning: (vsim-8630) Infinity results from division operation.
#    Time: 3155 ns  Iteration: 4  Process: /axi_test_pkg::master_monitor::collect_data/#FORK#82_7feff1c9c7c File: ../tb/axi_xtn.sv Line: 203
# UVM_INFO ../slave_agent_top/slave_monitor.sv(178) @ 3165000: uvm_test_top.envh.sagt_top.sagt[2].smonh [slave_monitor] Printing from waddr collect task ------------------------------------
# Name       Type      Size  Value    
# ------------------------------------
# xtn3       axi_xtn   -     @1963    
#   AWID     integral  4     'd0      
#   AWADDR   integral  32    'h0      
#   AWLEN    integral  4     'd0      
#   AWSIZE   integral  3     'd0      
#   AWBURST  integral  2     'd0      
#   WID      integral  4     'd0      
#   BID      integral  4     'd0      
#   BRESP    integral  2     'd0      
#   ARID     integral  4     'd0      
#   ARADDR   integral  32    'h27f84b6
#   ARLEN    integral  8     'd3      
#   ARSIZE   integral  3     'd1      
#   ARBURST  integral  2     'd1      
#   RID      integral  4     'd0      
# ------------------------------------
# 
# ** Warning: (vsim-8630) Infinity results from division operation.
#    Time: 3175 ns  Iteration: 3  Process: /axi_test_pkg::slave_monitor::collect_data/#FORK#77_7feff49dd9c File: ../tb/axi_xtn.sv Line: 203
# end of slave_addr
# start of slave_addr
# start of slave_rdata
# UVM_INFO ../slave_agent_top/slave_monitor.sv(203) @ 3195000: uvm_test_top.envh.sagt_top.sagt[2].smonh [slave_monitor] Printing from wdata collect task -------------------------------------
# Name       Type      Size  Value     
# -------------------------------------
# xtn3       axi_xtn   -     @1963     
#   AWID     integral  4     'd0       
#   AWADDR   integral  32    'h0       
#   AWLEN    integral  4     'd0       
#   AWSIZE   integral  3     'd0       
#   AWBURST  integral  2     'd0       
#   WID      integral  4     'd0       
#   BID      integral  4     'd0       
#   BRESP    integral  2     'd0       
#   ARID     integral  4     'd0       
#   ARADDR   integral  32    'h27f84b6 
#   ARLEN    integral  8     'd3       
#   ARSIZE   integral  3     'd1       
#   ARBURST  integral  2     'd1       
#   RID      integral  4     'd0       
#   RDATA    integral  32    'hc06b2427
#   RRESP    integral  2     'd0       
#   RDATA    integral  32    'hc06b2427
#   RRESP    integral  2     'd0       
#   RDATA    integral  32    'hc06b2427
#   RRESP    integral  2     'd0       
#   RDATA    integral  32    'hc06b2427
#   RRESP    integral  2     'd0       
# -------------------------------------
# 
# end of drive_raddr
# start of drive_rdata
# UVM_INFO ../master_agent_top/master_monitor.sv(207) @ 3205000: uvm_test_top.envh.magt_top.magt[2].mmonh [master_monitor] Printing from wdata collect task -------------------------------------
# Name       Type      Size  Value     
# -------------------------------------
# xtn3       axi_xtn   -     @2037     
#   AWID     integral  4     'd0       
#   AWADDR   integral  32    'h0       
#   AWLEN    integral  4     'd0       
#   AWSIZE   integral  3     'd0       
#   AWBURST  integral  2     'd0       
#   WID      integral  4     'd0       
#   BID      integral  4     'd0       
#   BRESP    integral  2     'd0       
#   ARID     integral  4     'd3       
#   ARADDR   integral  32    'h27f84b6 
#   ARLEN    integral  8     'd3       
#   ARSIZE   integral  3     'd1       
#   ARBURST  integral  2     'd1       
#   RID      integral  4     'd3       
#   RDATA    integral  32    'hc06b2427
#   RRESP    integral  2     'd0       
#   RDATA    integral  32    'hc06b2427
#   RRESP    integral  2     'd0       
#   RDATA    integral  32    'hc06b2427
#   RRESP    integral  2     'd0       
#   RDATA    integral  32    'hc06b2427
#   RRESP    integral  2     'd0       
# -------------------------------------
# 
# UVM_INFO ../master_agent_top/master_monitor.sv(104) @ 3385000: uvm_test_top.envh.magt_top.magt[3].mmonh [master_monitor] Printing from waddr collect task ------------------------------------
# Name       Type      Size  Value    
# ------------------------------------
# xtn        axi_xtn   -     @2023    
#   AWID     integral  4     10       
#   AWADDR   integral  32    'h3c7c5a7
#   AWLEN    integral  4     'd6      
#   AWSIZE   integral  3     'd1      
#   AWBURST  integral  2     'd1      
#   WID      integral  4     'd0      
#   BID      integral  4     'd0      
#   BRESP    integral  2     'd0      
#   ARID     integral  4     'd0      
#   ARADDR   integral  32    'h0      
#   ARLEN    integral  8     'd0      
#   ARSIZE   integral  3     'd0      
#   ARBURST  integral  2     'd0      
#   RID      integral  4     'd0      
# ------------------------------------
# 
# end of slave_rdata
# end of drive_rdata
# ** Warning: (vsim-8630) Infinity results from division operation.
#    Time: 3395 ns  Iteration: 4  Process: /axi_test_pkg::master_monitor::collect_data/#FORK#59_7feff1c9ac4 File: ../tb/axi_xtn.sv Line: 136
# UVM_INFO ../slave_agent_top/slave_monitor.sv(100) @ 3405000: uvm_test_top.envh.sagt_top.sagt[3].smonh [slave_monitor] Printing from waddr collect task ------------------------------------
# Name       Type      Size  Value    
# ------------------------------------
# xtn        axi_xtn   -     @1933    
#   AWID     integral  4     'd0      
#   AWADDR   integral  32    'h3c7c5a7
#   AWLEN    integral  4     'd6      
#   AWSIZE   integral  3     'd1      
#   AWBURST  integral  2     'd1      
#   WID      integral  4     'd0      
#   BID      integral  4     'd0      
#   BRESP    integral  2     'd0      
#   ARID     integral  4     'd0      
#   ARADDR   integral  32    'h0      
#   ARLEN    integral  8     'd0      
#   ARSIZE   integral  3     'd0      
#   ARBURST  integral  2     'd0      
#   RID      integral  4     'd0      
# ------------------------------------
# 
# ** Warning: (vsim-8630) Infinity results from division operation.
#    Time: 3415 ns  Iteration: 3  Process: /axi_test_pkg::slave_monitor::collect_data/#FORK#55_7feff49df33 File: ../tb/axi_xtn.sv Line: 136
# end of drive_awadrr
# UVM_INFO ../master_agent_top/master_driver.sv(46) @ 3425000: uvm_test_top.envh.magt_top.magt[3].mdrvh [master_driver] Prinitng from driver ---------------------------------------------------------------------------------------------------
# Name                           Type      Size  Value                                               
# ---------------------------------------------------------------------------------------------------
# req                            axi_xtn   -     @2094                                               
#   begin_time                   time      64    0                                                   
#   depth                        int       32    'd2                                                 
#   parent sequence (name)       string    10    incr_seq11                                          
#   parent sequence (full name)  string    52    uvm_test_top.envh.magt_top.magt[3].mseqrh.incr_seq11
#   sequencer                    string    41    uvm_test_top.envh.magt_top.magt[3].mseqrh           
#   AWID                         integral  4     10                                                  
#   AWADDR                       integral  32    'h3c7c5a7                                           
#   AWLEN                        integral  4     'd6                                                 
#   AWSIZE                       integral  3     'd1                                                 
#   AWBURST                      integral  2     'd1                                                 
#   WID                          integral  4     10                                                  
#   WDATA                        integral  32    'h8b032b7e                                          
#   WSTRB                        integral  4     'b1000                                              
#   WLAST                        integral  1     'dX                                                 
#   WDATA                        integral  32    'h348eeaee                                          
#   WSTRB                        integral  4     'b11                                                
#   WLAST                        integral  1     'dX                                                 
#   WDATA                        integral  32    'h332a74e8                                          
#   WSTRB                        integral  4     'b1100                                              
#   WLAST                        integral  1     'dX                                                 
#   WDATA                        integral  32    'h565c009e                                          
#   WSTRB                        integral  4     'b11                                                
#   WLAST                        integral  1     'dX                                                 
#   WDATA                        integral  32    'h965b8c84                                          
#   WSTRB                        integral  4     'b1100                                              
#   WLAST                        integral  1     'dX                                                 
#   WDATA                        integral  32    'h63b6e63e                                          
#   WSTRB                        integral  4     'b11                                                
#   WLAST                        integral  1     'dX                                                 
#   WDATA                        integral  32    'hb2f805dd                                          
#   WSTRB                        integral  4     'b1100                                              
#   WLAST                        integral  1     'dX                                                 
#   BID                          integral  4     10                                                  
#   BRESP                        integral  2     'd0                                                 
#   ARID                         integral  4     11                                                  
#   ARADDR                       integral  32    'h3bb35ef                                           
#   ARLEN                        integral  8     'd4                                                 
#   ARSIZE                       integral  3     'd2                                                 
#   ARBURST                      integral  2     'd1                                                 
#   RID                          integral  4     11                                                  
#   RDATA                        integral  32    'hd6a17799                                          
#   RRESP                        integral  2     'd0                                                 
#   RDATA                        integral  32    'h6c1ff5df                                          
#   RRESP                        integral  2     'd0                                                 
#   RDATA                        integral  32    'hc620ade7                                          
#   RRESP                        integral  2     'd0                                                 
#   RDATA                        integral  32    'hdbd4b9ca                                          
#   RRESP                        integral  2     'd0                                                 
#   RDATA                        integral  32    'h7f989e70                                          
#   RRESP                        integral  2     'd0                                                 
# ---------------------------------------------------------------------------------------------------
# 
# start ofdrive_wdata
# end of read_awaddr
# start of read_awaddr
# start of read_data
# ** Warning: (vsim-8630) Infinity results from division operation.
#    Time: 3435 ns  Iteration: 3  Process: /axi_test_pkg::slave_driver::drive/#FORK#58_7feff49df90 File: ../tb/axi_xtn.sv Line: 136
# aligned:3c7c5a6
# address calculated in slave side '{63423911, 63423912, 63423914, 63423916, 63423918, 63423920, 63423922}
# slave driver start of awvalid
# WSTRB in slave driver is:8
# value inside mem is: 139
# UVM_INFO ../master_agent_top/master_monitor.sv(156) @ 3455000: uvm_test_top.envh.magt_top.magt[3].mmonh [master_monitor] Printing from wdata collect task ---------------------------------
# Name       Type      Size  Value 
# ---------------------------------
# xtn        axi_xtn   -     @2473 
#   AWID     integral  4     'd0   
#   AWADDR   integral  32    'h0   
#   AWLEN    integral  4     'd0   
#   AWSIZE   integral  3     'd0   
#   AWBURST  integral  2     'd0   
#   WID      integral  4     10    
#   WDATA    integral  32    'h8b  
#   WSTRB    integral  4     'b1000
#   WLAST    integral  1     'd0   
#   BID      integral  4     'd0   
#   BRESP    integral  2     'd0   
#   ARID     integral  4     'd0   
#   ARADDR   integral  32    'h0   
#   ARLEN    integral  8     'd0   
#   ARSIZE   integral  3     'd0   
#   ARBURST  integral  2     'd0   
#   RID      integral  4     'd0   
# ---------------------------------
# 
# UVM_INFO ../slave_agent_top/slave_monitor.sv(152) @ 3465000: uvm_test_top.envh.sagt_top.sagt[3].smonh [slave_monitor] Printing from wdata collect task ---------------------------------
# Name       Type      Size  Value 
# ---------------------------------
# xtn        axi_xtn   -     @2481 
#   AWID     integral  4     'd0   
#   AWADDR   integral  32    'h0   
#   AWLEN    integral  4     'd0   
#   AWSIZE   integral  3     'd0   
#   AWBURST  integral  2     'd0   
#   WID      integral  4     'd0   
#   WDATA    integral  32    'h8b  
#   WSTRB    integral  4     'b1000
#   WLAST    integral  1     'd0   
#   BID      integral  4     'd0   
#   BRESP    integral  2     'd0   
#   ARID     integral  4     'd0   
#   ARADDR   integral  32    'h0   
#   ARLEN    integral  8     'd0   
#   ARSIZE   integral  3     'd0   
#   ARBURST  integral  2     'd0   
#   RID      integral  4     'd0   
# ---------------------------------
# 
# slave driver start of awvalid
# WSTRB in slave driver is:3
# value inside mem is: 60142
# slave driver start of awvalid
# WSTRB in slave driver is:12
# value inside mem is: 13098
# slave driver start of awvalid
# WSTRB in slave driver is:3
# value inside mem is: 158
# slave driver start of awvalid
# WSTRB in slave driver is:12
# value inside mem is: 38491
# slave driver start of awvalid
# WSTRB in slave driver is:3
# value inside mem is: 58942
# slave driver start of awvalid
# WSTRB in slave driver is:12
# value inside mem is: 45816
# memory is '{63423911:139, 63423912:60142, 63423914:13098, 63423916:158, 63423918:38491, 63423920:58942, 63423922:45816 }
# end of read_data
# start of driver_wresp
# BID sent is  0
# UVM_INFO ../slave_agent_top/slave_monitor.sv(161) @ 3695000: uvm_test_top.envh.sagt_top.sagt[3].smonh [slave_monitor] Printing from wresponse collect task --------------------------------
# Name       Type      Size  Value
# --------------------------------
# xtn3       axi_xtn   -     @1941
#   AWID     integral  4     'd0  
#   AWADDR   integral  32    'h0  
#   AWLEN    integral  4     'd0  
#   AWSIZE   integral  3     'd0  
#   AWBURST  integral  2     'd0  
#   WID      integral  4     'd0  
#   BID      integral  4     'd0  
#   BRESP    integral  2     'd0  
#   ARID     integral  4     'd0  
#   ARADDR   integral  32    'h0  
#   ARLEN    integral  8     'd0  
#   ARSIZE   integral  3     'd0  
#   ARBURST  integral  2     'd0  
#   RID      integral  4     'd0  
# --------------------------------
# 
# UVM_INFO ../slave_agent_top/slave_monitor.sv(161) @ 3695000: uvm_test_top.envh.sagt_top.sagt[3].smonh [slave_monitor] Printing from wresponse collect task --------------------------------
# Name       Type      Size  Value
# --------------------------------
# xtn3       axi_xtn   -     @1941
#   AWID     integral  4     'd0  
#   AWADDR   integral  32    'h0  
#   AWLEN    integral  4     'd0  
#   AWSIZE   integral  3     'd0  
#   AWBURST  integral  2     'd0  
#   WID      integral  4     'd0  
#   BID      integral  4     'd0  
#   BRESP    integral  2     'd0  
#   ARID     integral  4     'd0  
#   ARADDR   integral  32    'h0  
#   ARLEN    integral  8     'd0  
#   ARSIZE   integral  3     'd0  
#   ARBURST  integral  2     'd0  
#   RID      integral  4     'd0  
# --------------------------------
# 
# end of drive_wdata
# start ofdrive_bresp
# UVM_INFO ../master_agent_top/master_monitor.sv(165) @ 3725000: uvm_test_top.envh.magt_top.magt[3].mmonh [master_monitor] Printing from wresponse collect task --------------------------------
# Name       Type      Size  Value
# --------------------------------
# xtn3       axi_xtn   -     @2027
#   AWID     integral  4     'd0  
#   AWADDR   integral  32    'h0  
#   AWLEN    integral  4     'd0  
#   AWSIZE   integral  3     'd0  
#   AWBURST  integral  2     'd0  
#   WID      integral  4     'd0  
#   BID      integral  4     'd0  
#   BRESP    integral  2     'd0  
#   ARID     integral  4     'd0  
#   ARADDR   integral  32    'h0  
#   ARLEN    integral  8     'd0  
#   ARSIZE   integral  3     'd0  
#   ARBURST  integral  2     'd0  
#   RID      integral  4     'd0  
# --------------------------------
# 
# end of drive_wresp
# UVM_INFO ../master_agent_top/master_monitor.sv(182) @ 3745000: uvm_test_top.envh.magt_top.magt[3].mmonh [master_monitor] Printing from waddr collect task ------------------------------------
# Name       Type      Size  Value    
# ------------------------------------
# xtn3       axi_xtn   -     @2027    
#   AWID     integral  4     'd0      
#   AWADDR   integral  32    'h0      
#   AWLEN    integral  4     'd0      
#   AWSIZE   integral  3     'd0      
#   AWBURST  integral  2     'd0      
#   WID      integral  4     'd0      
#   BID      integral  4     'd0      
#   BRESP    integral  2     'd0      
#   ARID     integral  4     11       
#   ARADDR   integral  32    'h3bb35ef
#   ARLEN    integral  8     'd4      
#   ARSIZE   integral  3     'd2      
#   ARBURST  integral  2     'd1      
#   RID      integral  4     'd0      
# ------------------------------------
# 
# ** Warning: (vsim-8630) Infinity results from division operation.
#    Time: 3755 ns  Iteration: 4  Process: /axi_test_pkg::master_monitor::collect_data/#FORK#82_7feff1c9b00 File: ../tb/axi_xtn.sv Line: 203
# UVM_INFO ../slave_agent_top/slave_monitor.sv(178) @ 3765000: uvm_test_top.envh.sagt_top.sagt[3].smonh [slave_monitor] Printing from waddr collect task ------------------------------------
# Name       Type      Size  Value    
# ------------------------------------
# xtn3       axi_xtn   -     @1941    
#   AWID     integral  4     'd0      
#   AWADDR   integral  32    'h0      
#   AWLEN    integral  4     'd0      
#   AWSIZE   integral  3     'd0      
#   AWBURST  integral  2     'd0      
#   WID      integral  4     'd0      
#   BID      integral  4     'd0      
#   BRESP    integral  2     'd0      
#   ARID     integral  4     'd0      
#   ARADDR   integral  32    'h3bb35ef
#   ARLEN    integral  8     'd4      
#   ARSIZE   integral  3     'd2      
#   ARBURST  integral  2     'd1      
#   RID      integral  4     'd0      
# ------------------------------------
# 
# end of drive_bresp
# end of drive_raddr
# ** Warning: (vsim-8630) Infinity results from division operation.
#    Time: 3775 ns  Iteration: 3  Process: /axi_test_pkg::slave_monitor::collect_data/#FORK#77_7feff49defc File: ../tb/axi_xtn.sv Line: 203
# start of drive_rdata
# end of slave_addr
# start of slave_addr
# start of slave_rdata
# UVM_INFO ../slave_agent_top/slave_monitor.sv(203) @ 3805000: uvm_test_top.envh.sagt_top.sagt[3].smonh [slave_monitor] Printing from wdata collect task -------------------------------------
# Name       Type      Size  Value     
# -------------------------------------
# xtn3       axi_xtn   -     @1941     
#   AWID     integral  4     'd0       
#   AWADDR   integral  32    'h0       
#   AWLEN    integral  4     'd0       
#   AWSIZE   integral  3     'd0       
#   AWBURST  integral  2     'd0       
#   WID      integral  4     'd0       
#   BID      integral  4     'd0       
#   BRESP    integral  2     'd0       
#   ARID     integral  4     'd0       
#   ARADDR   integral  32    'h3bb35ef 
#   ARLEN    integral  8     'd4       
#   ARSIZE   integral  3     'd2       
#   ARBURST  integral  2     'd1       
#   RID      integral  4     'd0       
#   RDATA    integral  32    'h43b26f89
#   RRESP    integral  2     'd0       
#   RDATA    integral  32    'h43b26f89
#   RRESP    integral  2     'd0       
#   RDATA    integral  32    'h43b26f89
#   RRESP    integral  2     'd0       
#   RDATA    integral  32    'h43b26f89
#   RRESP    integral  2     'd0       
#   RDATA    integral  32    'h43b26f89
#   RRESP    integral  2     'd0       
# -------------------------------------
# 
# UVM_INFO ../master_agent_top/master_monitor.sv(207) @ 3815000: uvm_test_top.envh.magt_top.magt[3].mmonh [master_monitor] Printing from wdata collect task -------------------------------------
# Name       Type      Size  Value     
# -------------------------------------
# xtn3       axi_xtn   -     @2027     
#   AWID     integral  4     'd0       
#   AWADDR   integral  32    'h0       
#   AWLEN    integral  4     'd0       
#   AWSIZE   integral  3     'd0       
#   AWBURST  integral  2     'd0       
#   WID      integral  4     'd0       
#   BID      integral  4     'd0       
#   BRESP    integral  2     'd0       
