# vsim -cvgperinstance -vopt -voptargs="+acc" -coverage -sva -c -do " log -r /* ;coverage save -onexit mem_cov4;run -all; exit" -wlf wave_file4.wlf -l test4.log -sv_seed random work.top "+UVM_TESTNAME=test_wrap" 
# Start time: 19:56:02 on Jan 18,2026
# ** Note: (vsim-8009) Loading existing optimized design _opt1
# //  Questa Sim-64
# //  Version 2022.1_2 linux_x86_64 Apr  2 2022
# //
# //  Copyright 1991-2022 Mentor Graphics Corporation
# //  All Rights Reserved.
# //
# //  QuestaSim and its associated documentation contain trade
# //  secrets and commercial or financial information that are the property of
# //  Mentor Graphics Corporation and are privileged, confidential,
# //  and exempt from disclosure under the Freedom of Information Act,
# //  5 U.S.C. Section 552. Furthermore, this information
# //  is prohibited from disclosure under the Trade Secrets Act,
# //  18 U.S.C. Section 1905.
# //
# Loading sv_std.std
# Loading work.axi_mif(fast)
# Loading work.axi_sif(fast)
# Loading mtiUvm.uvm_pkg(fast)
# Loading work.axi_test_pkg(fast)
# Loading mtiUvm.questa_uvm_pkg(fast)
# Loading work.top(fast)
# Loading work.axi_mif(fast__2)
# Loading work.axi_sif(fast__2)
# Loading work.axi_interconnect_wrap_4x4(fast)
# Loading work.axi_interconnect(fast)
# Loading work.arbiter(fast)
# Loading work.priority_encoder(fast)
# Loading /home/cad/eda/Mentor_Graphics/Questasim/questasim/uvm-1.1d/linux_x86_64/uvm_dpi.so
# ** Warning: (vsim-8634) Code was not compiled with coverage options.
# Sv_Seed = 2566105558
#  log -r /* 
# coverage save -onexit mem_cov4
# run -all
# ----------------------------------------------------------------
# UVM-1.1d
# (C) 2007-2013 Mentor Graphics Corporation
# (C) 2007-2013 Cadence Design Systems, Inc.
# (C) 2006-2013 Synopsys, Inc.
# (C) 2011-2013 Cypress Semiconductor Corp.
# ----------------------------------------------------------------
# 
#   ***********       IMPORTANT RELEASE NOTES         ************
# 
#   You are using a version of the UVM library that has been compiled
#   with `UVM_NO_DEPRECATED undefined.
#   See http://www.eda.org/svdb/view.php?id=3313 for more details.
# 
#   You are using a version of the UVM library that has been compiled
#   with `UVM_OBJECT_MUST_HAVE_CONSTRUCTOR undefined.
#   See http://www.eda.org/svdb/view.php?id=3770 for more details.
# 
#       (Specify +UVM_NO_RELNOTES to turn off this notice)
# 
# UVM_INFO verilog_src/questa_uvm_pkg-1.2/src/questa_uvm_pkg.sv(277) @ 0: reporter [Questa UVM] QUESTA_UVM-1.2.3
# UVM_INFO verilog_src/questa_uvm_pkg-1.2/src/questa_uvm_pkg.sv(278) @ 0: reporter [Questa UVM]  questa_uvm::init(+struct)
# Addressing configuration for axi_interconnect instance top.DUV.axi_interconnect_inst
#  0 ( 0): 00000000 / 24 -- 00000000-00ffffff
#  1 ( 0): 01000000 / 24 -- 01000000-01ffffff
#  2 ( 0): 02000000 / 24 -- 02000000-02ffffff
#  3 ( 0): 03000000 / 24 -- 03000000-03ffffff
# UVM_INFO @ 0: reporter [RNTST] Running test test_wrap...
# UVM_INFO @ 0: reporter [UVMTOP] UVM testbench topology:
# ----------------------------------------------------------------
# Name                         Type                    Size  Value
# ----------------------------------------------------------------
# uvm_test_top                 test_wrap               -     @491 
#   envh                       environment             -     @534 
#     magt_top                 master_agent_top        -     @542 
#       magt[0]                master_agent            -     @670 
#         mdrvh                master_driver           -     @710 
#           rsp_port           uvm_analysis_port       -     @725 
#           seq_item_port      uvm_seq_item_pull_port  -     @717 
#         mmonh                master_monitor          -     @703 
#         mseqrh               master_sequencer        -     @733 
#           rsp_export         uvm_analysis_export     -     @740 
#           seq_item_export    uvm_seq_item_pull_imp   -     @834 
#           arbitration_queue  array                   0     -    
#           lock_queue         array                   0     -    
#           num_last_reqs      integral                32    'd1  
#           num_last_rsps      integral                32    'd1  
#       magt[1]                master_agent            -     @678 
#         mdrvh                master_driver           -     @858 
#           rsp_port           uvm_analysis_port       -     @873 
#           seq_item_port      uvm_seq_item_pull_port  -     @865 
#         mmonh                master_monitor          -     @851 
#         mseqrh               master_sequencer        -     @881 
#           rsp_export         uvm_analysis_export     -     @888 
#           seq_item_export    uvm_seq_item_pull_imp   -     @982 
#           arbitration_queue  array                   0     -    
#           lock_queue         array                   0     -    
#           num_last_reqs      integral                32    'd1  
#           num_last_rsps      integral                32    'd1  
#       magt[2]                master_agent            -     @686 
#         mdrvh                master_driver           -     @1006
#           rsp_port           uvm_analysis_port       -     @1021
#           seq_item_port      uvm_seq_item_pull_port  -     @1013
#         mmonh                master_monitor          -     @999 
#         mseqrh               master_sequencer        -     @1029
#           rsp_export         uvm_analysis_export     -     @1036
#           seq_item_export    uvm_seq_item_pull_imp   -     @1130
#           arbitration_queue  array                   0     -    
#           lock_queue         array                   0     -    
#           num_last_reqs      integral                32    'd1  
#           num_last_rsps      integral                32    'd1  
#       magt[3]                master_agent            -     @694 
#         mdrvh                master_driver           -     @1154
#           rsp_port           uvm_analysis_port       -     @1169
#           seq_item_port      uvm_seq_item_pull_port  -     @1161
#         mmonh                master_monitor          -     @1147
#         mseqrh               master_sequencer        -     @1177
#           rsp_export         uvm_analysis_export     -     @1184
#           seq_item_export    uvm_seq_item_pull_imp   -     @1278
#           arbitration_queue  array                   0     -    
#           lock_queue         array                   0     -    
#           num_last_reqs      integral                32    'd1  
#           num_last_rsps      integral                32    'd1  
#     req                      virtual_sequencer       -     @556 
#       rsp_export             uvm_analysis_export     -     @563 
#       seq_item_export        uvm_seq_item_pull_imp   -     @657 
#       arbitration_queue      array                   0     -    
#       lock_queue             array                   0     -    
#       num_last_reqs          integral                32    'd1  
#       num_last_rsps          integral                32    'd1  
#     sagt_top                 slave_agent_top         -     @549 
#       sagt[0]                slave_agent             -     @1303
#         sdrvh                slave_driver            -     @1343
#           rsp_port           uvm_analysis_port       -     @1358
#           seq_item_port      uvm_seq_item_pull_port  -     @1350
#         smonh                slave_monitor           -     @1336
#         sseqrh               slave_sequencer         -     @1366
#           rsp_export         uvm_analysis_export     -     @1373
#           seq_item_export    uvm_seq_item_pull_imp   -     @1467
#           arbitration_queue  array                   0     -    
#           lock_queue         array                   0     -    
#           num_last_reqs      integral                32    'd1  
#           num_last_rsps      integral                32    'd1  
#       sagt[1]                slave_agent             -     @1311
#         sdrvh                slave_driver            -     @1491
#           rsp_port           uvm_analysis_port       -     @1506
#           seq_item_port      uvm_seq_item_pull_port  -     @1498
#         smonh                slave_monitor           -     @1484
#         sseqrh               slave_sequencer         -     @1514
#           rsp_export         uvm_analysis_export     -     @1521
#           seq_item_export    uvm_seq_item_pull_imp   -     @1615
#           arbitration_queue  array                   0     -    
#           lock_queue         array                   0     -    
#           num_last_reqs      integral                32    'd1  
#           num_last_rsps      integral                32    'd1  
#       sagt[2]                slave_agent             -     @1319
#         sdrvh                slave_driver            -     @1639
#           rsp_port           uvm_analysis_port       -     @1654
#           seq_item_port      uvm_seq_item_pull_port  -     @1646
#         smonh                slave_monitor           -     @1632
#         sseqrh               slave_sequencer         -     @1662
#           rsp_export         uvm_analysis_export     -     @1669
#           seq_item_export    uvm_seq_item_pull_imp   -     @1763
#           arbitration_queue  array                   0     -    
#           lock_queue         array                   0     -    
#           num_last_reqs      integral                32    'd1  
#           num_last_rsps      integral                32    'd1  
#       sagt[3]                slave_agent             -     @1327
#         sdrvh                slave_driver            -     @1787
#           rsp_port           uvm_analysis_port       -     @1802
#           seq_item_port      uvm_seq_item_pull_port  -     @1794
#         smonh                slave_monitor           -     @1780
#         sseqrh               slave_sequencer         -     @1810
#           rsp_export         uvm_analysis_export     -     @1817
#           seq_item_export    uvm_seq_item_pull_imp   -     @1911
#           arbitration_queue  array                   0     -    
#           lock_queue         array                   0     -    
#           num_last_reqs      integral                32    'd1  
#           num_last_rsps      integral                32    'd1  
# ----------------------------------------------------------------
# 
# start of read_awaddr
# start of slave_addr
# start of read_awaddr
# start of slave_addr
# start of read_awaddr
# start of slave_addr
# start of read_awaddr
# start of slave_addr
# //////////////////////////////////////////////// write_addr////////////////
#  wr_addr=6037944 6037945 6037946 6037947 6037948 6037949 6037950 6037951
# //////////////////////////////////////////////// write_addr_AWADDR   ////////////////
#  AWADDR=6037944
# //////////////////////////////////////////////// read_addr////////////////
#  rd_addr=2591646 2591644
# //////////////////////////////////////////////// write_addr_ARADDR  ////////////////
#  ARADDR=2591646
# //////////////////////////////////////////////// write_addr////////////////
#  wr_addr=19097458 19097460 19097462 19097464 19097466 19097468 19097470 19097440 19097442 19097444 19097446 19097448 19097450 19097452 19097454 19097456
# //////////////////////////////////////////////// write_addr_AWADDR   ////////////////
#  AWADDR=19097458
# //////////////////////////////////////////////// read_addr////////////////
#  rd_addr=31286331 31286328 31286329 31286330
# //////////////////////////////////////////////// write_addr_ARADDR  ////////////////
#  ARADDR=31286331
# //////////////////////////////////////////////// write_addr////////////////
#  wr_addr=42823380 42823384 42823388 42823360 42823364 42823368 42823372 42823376
# //////////////////////////////////////////////// write_addr_AWADDR   ////////////////
#  AWADDR=42823380
# //////////////////////////////////////////////// read_addr////////////////
#  rd_addr=35315816 35315820 35315808 35315812
# //////////////////////////////////////////////// write_addr_ARADDR  ////////////////
#  ARADDR=35315816
# //////////////////////////////////////////////// write_addr////////////////
#  wr_addr=53645160 53645164
# //////////////////////////////////////////////// write_addr_AWADDR   ////////////////
#  AWADDR=53645160
# //////////////////////////////////////////////// read_addr////////////////
#  rd_addr=56786000 56786004 56786008 56786012
# //////////////////////////////////////////////// write_addr_ARADDR  ////////////////
#  ARADDR=56786000
# start of drive_awaddr
# start of drive_raddr
# start of drive_awaddr
# start of drive_raddr
# start of drive_awaddr
# start of drive_raddr
# start of drive_awaddr
# start of drive_raddr
# inside drive_raddr before wait ARREADY
# inside drive_raddr before wait ARREADY
# inside drive_raddr before wait ARREADY
# inside drive_raddr before wait ARREADY
# UVM_INFO ../master_agent_top/master_monitor.sv(104) @ 45000: uvm_test_top.envh.magt_top.magt[0].mmonh [master_monitor] Printing from waddr collect task -----------------------------------
# Name       Type      Size  Value   
# -----------------------------------
# xtn        axi_xtn   -     @2053   
#   AWID     integral  4     'd3     
#   AWADDR   integral  32    'h5c21b8
#   AWLEN    integral  4     'd7     
#   AWSIZE   integral  3     'd0     
#   AWBURST  integral  2     2       
#   WID      integral  4     'd0     
#   BID      integral  4     'd0     
#   BRESP    integral  2     'd0     
#   ARID     integral  4     'd0     
#   ARADDR   integral  32    'h0     
#   ARLEN    integral  8     'd0     
#   ARSIZE   integral  3     'd0     
#   ARBURST  integral  2     'd0     
#   RID      integral  4     'd0     
# -----------------------------------
# 
# end of drive_awadrr
# UVM_INFO ../master_agent_top/master_driver.sv(46) @ 55000: uvm_test_top.envh.magt_top.magt[0].mdrvh [master_driver] Prinitng from driver ---------------------------------------------------------------------------------------------------
# Name                           Type      Size  Value                                               
# ---------------------------------------------------------------------------------------------------
# req                            axi_xtn   -     @2082                                               
#   begin_time                   time      64    0                                                   
#   depth                        int       32    'd2                                                 
#   parent sequence (name)       string    10    wrap_seq00                                          
#   parent sequence (full name)  string    52    uvm_test_top.envh.magt_top.magt[0].mseqrh.wrap_seq00
#   sequencer                    string    41    uvm_test_top.envh.magt_top.magt[0].mseqrh           
#   AWID                         integral  4     'd3                                                 
#   AWADDR                       integral  32    'h5c21b8                                            
#   AWLEN                        integral  4     'd7                                                 
#   AWSIZE                       integral  3     'd0                                                 
#   AWBURST                      integral  2     2                                                   
#   WID                          integral  4     'd3                                                 
#   WDATA                        integral  32    'h1ae106d1                                          
#   WSTRB                        integral  4     'b1                                                 
#   WLAST                        integral  1     'dX                                                 
#   WDATA                        integral  32    'h5b058484                                          
#   WSTRB                        integral  4     'b10                                                
#   WLAST                        integral  1     'dX                                                 
#   WDATA                        integral  32    'hddc52560                                          
#   WSTRB                        integral  4     'b100                                               
#   WLAST                        integral  1     'dX                                                 
#   WDATA                        integral  32    'h5ea5a989                                          
#   WSTRB                        integral  4     'b1000                                              
#   WLAST                        integral  1     'dX                                                 
#   WDATA                        integral  32    'h14317035                                          
#   WSTRB                        integral  4     'b1                                                 
#   WLAST                        integral  1     'dX                                                 
#   WDATA                        integral  32    'h7ecb26ff                                          
#   WSTRB                        integral  4     'b10                                                
#   WLAST                        integral  1     'dX                                                 
#   WDATA                        integral  32    'hd7de90d1                                          
#   WSTRB                        integral  4     'b100                                               
#   WLAST                        integral  1     'dX                                                 
#   WDATA                        integral  32    'hcbbe36d0                                          
#   WSTRB                        integral  4     'b1000                                              
#   WLAST                        integral  1     'dX                                                 
#   BID                          integral  4     'd3                                                 
#   BRESP                        integral  2     'd0                                                 
#   ARID                         integral  4     11                                                  
#   ARADDR                       integral  32    'h278b9e                                            
#   ARLEN                        integral  8     'd1                                                 
#   ARSIZE                       integral  3     'd1                                                 
#   ARBURST                      integral  2     2                                                   
#   RID                          integral  4     11                                                  
#   RDATA                        integral  32    'h8e6024e8                                          
#   RRESP                        integral  2     'd0                                                 
#   RDATA                        integral  32    'h359ff843                                          
#   RRESP                        integral  2     'd0                                                 
# ---------------------------------------------------------------------------------------------------
# 
# start ofdrive_wdata
# ** Warning: (vsim-8630) Infinity results from division operation.
#    Time: 55 ns  Iteration: 4  Process: /axi_test_pkg::master_monitor::collect_data/#FORK#59_7feff1cb796 File: ../tb/axi_xtn.sv Line: 136
# UVM_INFO ../slave_agent_top/slave_monitor.sv(100) @ 65000: uvm_test_top.envh.sagt_top.sagt[0].smonh [slave_monitor] Printing from waddr collect task -----------------------------------
# Name       Type      Size  Value   
# -----------------------------------
# xtn        axi_xtn   -     @1999   
#   AWID     integral  4     'd0     
#   AWADDR   integral  32    'h5c21b8
#   AWLEN    integral  4     'd7     
#   AWSIZE   integral  3     'd0     
#   AWBURST  integral  2     2       
#   WID      integral  4     'd0     
#   BID      integral  4     'd0     
#   BRESP    integral  2     'd0     
#   ARID     integral  4     'd0     
#   ARADDR   integral  32    'h0     
#   ARLEN    integral  8     'd0     
#   ARSIZE   integral  3     'd0     
#   ARBURST  integral  2     'd0     
#   RID      integral  4     'd0     
# -----------------------------------
# 
# ** Warning: (vsim-8630) Infinity results from division operation.
#    Time: 75 ns  Iteration: 5  Process: /axi_test_pkg::slave_monitor::collect_data/#FORK#55_7feff1c9859 File: ../tb/axi_xtn.sv Line: 136
# end of read_awaddr
# start of read_awaddr
# UVM_INFO ../master_agent_top/master_monitor.sv(156) @ 85000: uvm_test_top.envh.magt_top.magt[0].mmonh [master_monitor] Printing from wdata collect task --------------------------------
# Name       Type      Size  Value
# --------------------------------
# xtn        axi_xtn   -     @2314
#   AWID     integral  4     'd0  
#   AWADDR   integral  32    'h0  
#   AWLEN    integral  4     'd0  
#   AWSIZE   integral  3     'd0  
#   AWBURST  integral  2     'd0  
#   WID      integral  4     'd3  
#   WDATA    integral  32    'hd1 
#   WSTRB    integral  4     'b1  
#   WLAST    integral  1     'd0  
#   BID      integral  4     'd0  
#   BRESP    integral  2     'd0  
#   ARID     integral  4     'd0  
#   ARADDR   integral  32    'h0  
#   ARLEN    integral  8     'd0  
#   ARSIZE   integral  3     'd0  
#   ARBURST  integral  2     'd0  
#   RID      integral  4     'd0  
# --------------------------------
# 
# start of read_data
# ** Warning: (vsim-8630) Infinity results from division operation.
#    Time: 85 ns  Iteration: 3  Process: /axi_test_pkg::slave_driver::drive/#FORK#58_7feff1c9810 File: ../tb/axi_xtn.sv Line: 136
# aligned:5c21b8
# address calculated in slave side '{6037944, 6037945, 6037946, 6037947, 6037948, 6037949, 6037950, 6037951}
# slave driver start of awvalid
# WSTRB in slave driver is:1
# value inside mem is: 209
# UVM_INFO ../slave_agent_top/slave_monitor.sv(152) @ 105000: uvm_test_top.envh.sagt_top.sagt[0].smonh [slave_monitor] Printing from wdata collect task --------------------------------
# Name       Type      Size  Value
# --------------------------------
# xtn        axi_xtn   -     @2323
#   AWID     integral  4     'd0  
#   AWADDR   integral  32    'h0  
#   AWLEN    integral  4     'd0  
#   AWSIZE   integral  3     'd0  
#   AWBURST  integral  2     'd0  
#   WID      integral  4     'd0  
#   WDATA    integral  32    'hd1 
#   WSTRB    integral  4     'b1  
#   WLAST    integral  1     'd0  
#   BID      integral  4     'd0  
#   BRESP    integral  2     'd0  
#   ARID     integral  4     'd0  
#   ARADDR   integral  32    'h0  
#   ARLEN    integral  8     'd0  
#   ARSIZE   integral  3     'd0  
#   ARBURST  integral  2     'd0  
#   RID      integral  4     'd0  
# --------------------------------
# 
# slave driver start of awvalid
# WSTRB in slave driver is:2
# value inside mem is: 33924
# slave driver start of awvalid
# WSTRB in slave driver is:4
# value inside mem is: 197
# slave driver start of awvalid
# WSTRB in slave driver is:8
# value inside mem is: 94
# slave driver start of awvalid
# WSTRB in slave driver is:1
# value inside mem is: 53
# slave driver start of awvalid
# WSTRB in slave driver is:2
# value inside mem is: 9983
# slave driver start of awvalid
# WSTRB in slave driver is:4
# value inside mem is: 222
# slave driver start of awvalid
# WSTRB in slave driver is:8
# value inside mem is: 203
# memory is '{6037944:209, 6037945:33924, 6037946:197, 6037947:94, 6037948:53, 6037949:9983, 6037950:222, 6037951:203 }
# end of read_data
# start of driver_wresp
# BID sent is  0
# UVM_INFO ../slave_agent_top/slave_monitor.sv(161) @ 345000: uvm_test_top.envh.sagt_top.sagt[0].smonh [slave_monitor] Printing from wresponse collect task --------------------------------
# Name       Type      Size  Value
# --------------------------------
# xtn3       axi_xtn   -     @2007
#   AWID     integral  4     'd0  
#   AWADDR   integral  32    'h0  
#   AWLEN    integral  4     'd0  
#   AWSIZE   integral  3     'd0  
#   AWBURST  integral  2     'd0  
#   WID      integral  4     'd0  
#   BID      integral  4     'd0  
#   BRESP    integral  2     'd0  
#   ARID     integral  4     'd0  
#   ARADDR   integral  32    'h0  
#   ARLEN    integral  8     'd0  
#   ARSIZE   integral  3     'd0  
#   ARBURST  integral  2     'd0  
#   RID      integral  4     'd0  
# --------------------------------
# 
# UVM_INFO ../slave_agent_top/slave_monitor.sv(161) @ 345000: uvm_test_top.envh.sagt_top.sagt[0].smonh [slave_monitor] Printing from wresponse collect task --------------------------------
# Name       Type      Size  Value
# --------------------------------
# xtn3       axi_xtn   -     @2007
#   AWID     integral  4     'd0  
#   AWADDR   integral  32    'h0  
#   AWLEN    integral  4     'd0  
#   AWSIZE   integral  3     'd0  
#   AWBURST  integral  2     'd0  
#   WID      integral  4     'd0  
#   BID      integral  4     'd0  
#   BRESP    integral  2     'd0  
#   ARID     integral  4     'd0  
#   ARADDR   integral  32    'h0  
#   ARLEN    integral  8     'd0  
#   ARSIZE   integral  3     'd0  
#   ARBURST  integral  2     'd0  
#   RID      integral  4     'd0  
# --------------------------------
# 
# end of drive_wdata
# start ofdrive_bresp
# UVM_INFO ../master_agent_top/master_monitor.sv(165) @ 365000: uvm_test_top.envh.magt_top.magt[0].mmonh [master_monitor] Printing from wresponse collect task --------------------------------
# Name       Type      Size  Value
# --------------------------------
# xtn3       axi_xtn   -     @2057
#   AWID     integral  4     'd0  
#   AWADDR   integral  32    'h0  
#   AWLEN    integral  4     'd0  
#   AWSIZE   integral  3     'd0  
#   AWBURST  integral  2     'd0  
#   WID      integral  4     'd0  
#   BID      integral  4     'd0  
#   BRESP    integral  2     'd0  
#   ARID     integral  4     'd0  
#   ARADDR   integral  32    'h0  
#   ARLEN    integral  8     'd0  
#   ARSIZE   integral  3     'd0  
#   ARBURST  integral  2     'd0  
#   RID      integral  4     'd0  
# --------------------------------
# 
# UVM_INFO ../master_agent_top/master_monitor.sv(182) @ 385000: uvm_test_top.envh.magt_top.magt[0].mmonh [master_monitor] Printing from waddr collect task -----------------------------------
# Name       Type      Size  Value   
# -----------------------------------
# xtn3       axi_xtn   -     @2057   
#   AWID     integral  4     'd0     
#   AWADDR   integral  32    'h0     
#   AWLEN    integral  4     'd0     
#   AWSIZE   integral  3     'd0     
#   AWBURST  integral  2     'd0     
#   WID      integral  4     'd0     
#   BID      integral  4     'd0     
#   BRESP    integral  2     'd0     
#   ARID     integral  4     11      
#   ARADDR   integral  32    'h278b9e
#   ARLEN    integral  8     'd1     
#   ARSIZE   integral  3     'd1     
#   ARBURST  integral  2     2       
#   RID      integral  4     'd0     
# -----------------------------------
# 
# end of drive_wresp
# end of drive_bresp
# end of drive_raddr
# start of drive_rdata
# ** Warning: (vsim-8630) Infinity results from division operation.
#    Time: 395 ns  Iteration: 4  Process: /axi_test_pkg::master_monitor::collect_data/#FORK#82_7feff1cb9ee File: ../tb/axi_xtn.sv Line: 203
# UVM_INFO ../slave_agent_top/slave_monitor.sv(178) @ 405000: uvm_test_top.envh.sagt_top.sagt[0].smonh [slave_monitor] Printing from waddr collect task -----------------------------------
# Name       Type      Size  Value   
# -----------------------------------
# xtn3       axi_xtn   -     @2007   
#   AWID     integral  4     'd0     
#   AWADDR   integral  32    'h0     
#   AWLEN    integral  4     'd0     
#   AWSIZE   integral  3     'd0     
#   AWBURST  integral  2     'd0     
#   WID      integral  4     'd0     
#   BID      integral  4     'd0     
#   BRESP    integral  2     'd0     
#   ARID     integral  4     'd0     
#   ARADDR   integral  32    'h278b9e
#   ARLEN    integral  8     'd1     
#   ARSIZE   integral  3     'd1     
#   ARBURST  integral  2     2       
#   RID      integral  4     'd0     
# -----------------------------------
# 
# ** Warning: (vsim-8630) Infinity results from division operation.
#    Time: 415 ns  Iteration: 3  Process: /axi_test_pkg::slave_monitor::collect_data/#FORK#77_7feff1c9884 File: ../tb/axi_xtn.sv Line: 203
# end of slave_addr
# start of slave_addr
# start of slave_rdata
# UVM_INFO ../slave_agent_top/slave_monitor.sv(203) @ 455000: uvm_test_top.envh.sagt_top.sagt[0].smonh [slave_monitor] Printing from wdata collect task -------------------------------------
# Name       Type      Size  Value     
# -------------------------------------
# xtn3       axi_xtn   -     @2007     
#   AWID     integral  4     'd0       
#   AWADDR   integral  32    'h0       
#   AWLEN    integral  4     'd0       
#   AWSIZE   integral  3     'd0       
#   AWBURST  integral  2     'd0       
#   WID      integral  4     'd0       
#   BID      integral  4     'd0       
#   BRESP    integral  2     'd0       
#   ARID     integral  4     'd0       
#   ARADDR   integral  32    'h278b9e  
#   ARLEN    integral  8     'd1       
#   ARSIZE   integral  3     'd1       
#   ARBURST  integral  2     2         
#   RID      integral  4     'd0       
#   RDATA    integral  32    'h18e5f801
#   RRESP    integral  2     'd0       
#   RDATA    integral  32    'h18e5f801
#   RRESP    integral  2     'd0       
# -------------------------------------
# 
# UVM_INFO ../master_agent_top/master_monitor.sv(207) @ 465000: uvm_test_top.envh.magt_top.magt[0].mmonh [master_monitor] Printing from wdata collect task -------------------------------------
# Name       Type      Size  Value     
# -------------------------------------
# xtn3       axi_xtn   -     @2057     
#   AWID     integral  4     'd0       
#   AWADDR   integral  32    'h0       
#   AWLEN    integral  4     'd0       
#   AWSIZE   integral  3     'd0       
#   AWBURST  integral  2     'd0       
#   WID      integral  4     'd0       
#   BID      integral  4     'd0       
#   BRESP    integral  2     'd0       
#   ARID     integral  4     11        
#   ARADDR   integral  32    'h278b9e  
#   ARLEN    integral  8     'd1       
#   ARSIZE   integral  3     'd1       
#   ARBURST  integral  2     2         
#   RID      integral  4     11        
#   RDATA    integral  32    'h18e5f801
#   RRESP    integral  2     'd0       
#   RDATA    integral  32    'h18e5f801
#   RRESP    integral  2     'd0       
# -------------------------------------
# 
# end of drive_rdata
# UVM_INFO ../master_agent_top/master_monitor.sv(104) @ 545000: uvm_test_top.envh.magt_top.magt[1].mmonh [master_monitor] Printing from waddr collect task ------------------------------------
# Name       Type      Size  Value    
# ------------------------------------
# xtn        axi_xtn   -     @2043    
#   AWID     integral  4     'd4      
#   AWADDR   integral  32    'h1236772
#   AWLEN    integral  4     15       
#   AWSIZE   integral  3     'd1      
#   AWBURST  integral  2     2        
#   WID      integral  4     'd0      
#   BID      integral  4     'd0      
#   BRESP    integral  2     'd0      
#   ARID     integral  4     'd0      
#   ARADDR   integral  32    'h0      
#   ARLEN    integral  8     'd0      
#   ARSIZE   integral  3     'd0      
#   ARBURST  integral  2     'd0      
#   RID      integral  4     'd0      
# ------------------------------------
# 
# end of slave_rdata
# ** Warning: (vsim-8630) Infinity results from division operation.
#    Time: 555 ns  Iteration: 4  Process: /axi_test_pkg::master_monitor::collect_data/#FORK#59_7feff1c9df1 File: ../tb/axi_xtn.sv Line: 136
# UVM_INFO ../slave_agent_top/slave_monitor.sv(100) @ 565000: uvm_test_top.envh.sagt_top.sagt[1].smonh [slave_monitor] Printing from waddr collect task ------------------------------------
# Name       Type      Size  Value    
# ------------------------------------
# xtn        axi_xtn   -     @1977    
#   AWID     integral  4     'd0      
#   AWADDR   integral  32    'h1236772
#   AWLEN    integral  4     15       
#   AWSIZE   integral  3     'd1      
#   AWBURST  integral  2     2        
#   WID      integral  4     'd0      
#   BID      integral  4     'd0      
#   BRESP    integral  2     'd0      
#   ARID     integral  4     'd0      
#   ARADDR   integral  32    'h0      
#   ARLEN    integral  8     'd0      
#   ARSIZE   integral  3     'd0      
#   ARBURST  integral  2     'd0      
#   RID      integral  4     'd0      
# ------------------------------------
# 
# end of drive_awadrr
# UVM_INFO ../master_agent_top/master_driver.sv(46) @ 575000: uvm_test_top.envh.magt_top.magt[1].mdrvh [master_driver] Prinitng from driver ---------------------------------------------------------------------------------------------------
# Name                           Type      Size  Value                                               
# ---------------------------------------------------------------------------------------------------
# req                            axi_xtn   -     @2086                                               
#   begin_time                   time      64    0                                                   
#   depth                        int       32    'd2                                                 
#   parent sequence (name)       string    10    wrap_seq01                                          
#   parent sequence (full name)  string    52    uvm_test_top.envh.magt_top.magt[1].mseqrh.wrap_seq01
#   sequencer                    string    41    uvm_test_top.envh.magt_top.magt[1].mseqrh           
#   AWID                         integral  4     'd4                                                 
#   AWADDR                       integral  32    'h1236772                                           
#   AWLEN                        integral  4     15                                                  
#   AWSIZE                       integral  3     'd1                                                 
#   AWBURST                      integral  2     2                                                   
#   WID                          integral  4     'd4                                                 
#   WDATA                        integral  32    'h6274695d                                          
#   WSTRB                        integral  4     'b1100                                              
#   WLAST                        integral  1     'dX                                                 
#   WDATA                        integral  32    'h7c7280f7                                          
#   WSTRB                        integral  4     'b11                                                
#   WLAST                        integral  1     'dX                                                 
#   WDATA                        integral  32    'h8b1dd0cc                                          
#   WSTRB                        integral  4     'b1100                                              
#   WLAST                        integral  1     'dX                                                 
#   WDATA                        integral  32    'h2240cff7                                          
#   WSTRB                        integral  4     'b11                                                
#   WLAST                        integral  1     'dX                                                 
#   WDATA                        integral  32    'h952b84d2                                          
#   WSTRB                        integral  4     'b1100                                              
#   WLAST                        integral  1     'dX                                                 
#   WDATA                        integral  32    'hc36d7da3                                          
#   WSTRB                        integral  4     'b11                                                
#   WLAST                        integral  1     'dX                                                 
#   WDATA                        integral  32    'h27c7cbb3                                          
#   WSTRB                        integral  4     'b1100                                              
#   WLAST                        integral  1     'dX                                                 
#   WDATA                        integral  32    'ha941f560                                          
#   WSTRB                        integral  4     'b11                                                
#   WLAST                        integral  1     'dX                                                 
#   WDATA                        integral  32    'h527b574d                                          
#   WSTRB                        integral  4     'b1100                                              
#   WLAST                        integral  1     'dX                                                 
#   WDATA                        integral  32    'hb00502b5                                          
#   WSTRB                        integral  4     'b11                                                
#   WLAST                        integral  1     'dX                                                 
#   WDATA                        integral  32    'he96650f                                           
#   WSTRB                        integral  4     'b1100                                              
#   WLAST                        integral  1     'dX                                                 
#   WDATA                        integral  32    'h6e549c65                                          
#   WSTRB                        integral  4     'b11                                                
#   WLAST                        integral  1     'dX                                                 
#   WDATA                        integral  32    'hc5b7cea7                                          
#   WSTRB                        integral  4     'b1100                                              
#   WLAST                        integral  1     'dX                                                 
#   WDATA                        integral  32    'hee7dbe4e                                          
#   WSTRB                        integral  4     'b11                                                
#   WLAST                        integral  1     'dX                                                 
#   WDATA                        integral  32    'h5bccb85                                           
#   WSTRB                        integral  4     'b1100                                              
#   WLAST                        integral  1     'dX                                                 
#   WDATA                        integral  32    'h855b82e9                                          
#   WSTRB                        integral  4     'b11                                                
#   WLAST                        integral  1     'dX                                                 
#   BID                          integral  4     'd4                                                 
#   BRESP                        integral  2     'd0                                                 
#   ARID                         integral  4     15                                                  
#   ARADDR                       integral  32    'h1dd643b                                           
#   ARLEN                        integral  8     'd3                                                 
#   ARSIZE                       integral  3     'd0                                                 
#   ARBURST                      integral  2     2                                                   
#   RID                          integral  4     15                                                  
#   RDATA                        integral  32    'hdf1ac66                                           
#   RRESP                        integral  2     'd0                                                 
#   RDATA                        integral  32    'hfdcb1d89                                          
#   RRESP                        integral  2     'd0                                                 
#   RDATA                        integral  32    'h256c080d                                          
#   RRESP                        integral  2     'd0                                                 
#   RDATA                        integral  32    'h9c14e4e                                           
#   RRESP                        integral  2     'd0                                                 
# ---------------------------------------------------------------------------------------------------
# 
# ** Warning: (vsim-8630) Infinity results from division operation.
#    Time: 575 ns  Iteration: 3  Process: /axi_test_pkg::slave_monitor::collect_data/#FORK#55_7feff49dc74 File: ../tb/axi_xtn.sv Line: 136
# start ofdrive_wdata
# end of read_awaddr
# start of read_awaddr
# UVM_INFO ../master_agent_top/master_monitor.sv(156) @ 605000: uvm_test_top.envh.magt_top.magt[1].mmonh [master_monitor] Printing from wdata collect task ---------------------------------
# Name       Type      Size  Value 
# ---------------------------------
# xtn        axi_xtn   -     @2367 
#   AWID     integral  4     'd0   
#   AWADDR   integral  32    'h0   
#   AWLEN    integral  4     'd0   
#   AWSIZE   integral  3     'd0   
#   AWBURST  integral  2     'd0   
#   WID      integral  4     'd4   
#   WDATA    integral  32    'h6274
#   WSTRB    integral  4     'b1100
#   WLAST    integral  1     'd0   
#   BID      integral  4     'd0   
#   BRESP    integral  2     'd0   
#   ARID     integral  4     'd0   
#   ARADDR   integral  32    'h0   
#   ARLEN    integral  8     'd0   
#   ARSIZE   integral  3     'd0   
#   ARBURST  integral  2     'd0   
#   RID      integral  4     'd0   
# ---------------------------------
# 
# start of read_data
# ** Warning: (vsim-8630) Infinity results from division operation.
#    Time: 605 ns  Iteration: 3  Process: /axi_test_pkg::slave_driver::drive/#FORK#58_7feff49dcd1 File: ../tb/axi_xtn.sv Line: 136
# aligned:1236772
# address calculated in slave side '{19097458, 19097460, 19097462, 19097464, 19097466, 19097468, 19097470, 19097472, 19097474, 19097476, 19097478, 19097480, 19097482, 19097484, 19097486, 19097488}
# slave driver start of awvalid
# WSTRB in slave driver is:12
# value inside mem is: 25204
# UVM_INFO ../slave_agent_top/slave_monitor.sv(152) @ 625000: uvm_test_top.envh.sagt_top.sagt[1].smonh [slave_monitor] Printing from wdata collect task ---------------------------------
# Name       Type      Size  Value 
# ---------------------------------
# xtn        axi_xtn   -     @2375 
#   AWID     integral  4     'd0   
#   AWADDR   integral  32    'h0   
#   AWLEN    integral  4     'd0   
#   AWSIZE   integral  3     'd0   
#   AWBURST  integral  2     'd0   
#   WID      integral  4     'd0   
#   WDATA    integral  32    'h6274
#   WSTRB    integral  4     'b1100
#   WLAST    integral  1     'd0   
#   BID      integral  4     'd0   
#   BRESP    integral  2     'd0   
#   ARID     integral  4     'd0   
#   ARADDR   integral  32    'h0   
#   ARLEN    integral  8     'd0   
#   ARSIZE   integral  3     'd0   
#   ARBURST  integral  2     'd0   
#   RID      integral  4     'd0   
# ---------------------------------
# 
# slave driver start of awvalid
# WSTRB in slave driver is:3
# value inside mem is: 33015
# slave driver start of awvalid
# WSTRB in slave driver is:12
# value inside mem is: 35613
# slave driver start of awvalid
# WSTRB in slave driver is:3
# value inside mem is: 53239
# slave driver start of awvalid
# WSTRB in slave driver is:12
# value inside mem is: 38187
# slave driver start of awvalid
# WSTRB in slave driver is:3
# value inside mem is: 32163
# slave driver start of awvalid
# WSTRB in slave driver is:12
# value inside mem is: 10183
# slave driver start of awvalid
# WSTRB in slave driver is:3
# value inside mem is: 62816
# slave driver start of awvalid
# WSTRB in slave driver is:12
# value inside mem is: 21115
# slave driver start of awvalid
# WSTRB in slave driver is:3
# value inside mem is: 693
# slave driver start of awvalid
# WSTRB in slave driver is:12
# value inside mem is: 3734
# slave driver start of awvalid
# WSTRB in slave driver is:3
# value inside mem is: 40037
# slave driver start of awvalid
# WSTRB in slave driver is:12
# value inside mem is: 50615
# slave driver start of awvalid
# WSTRB in slave driver is:3
# value inside mem is: 48718
# slave driver start of awvalid
# WSTRB in slave driver is:12
# value inside mem is: 1468
# slave driver start of awvalid
# WSTRB in slave driver is:3
# value inside mem is: 33513
# memory is '{19097458:25204, 19097460:33015, 19097462:35613, 19097464:53239, 19097466:38187, 19097468:32163, 19097470:10183, 19097472:62816, 19097474:21115, 19097476:693, 19097478:3734, 19097480:40037, 19097482:50615, 19097484:48718, 19097486:1468, 19097488:33513 }
# end of read_data
# start of driver_wresp
# BID sent is  0
# UVM_INFO ../slave_agent_top/slave_monitor.sv(161) @ 1165000: uvm_test_top.envh.sagt_top.sagt[1].smonh [slave_monitor] Printing from wresponse collect task --------------------------------
# Name       Type      Size  Value
# --------------------------------
# xtn3       axi_xtn   -     @1985
#   AWID     integral  4     'd0  
#   AWADDR   integral  32    'h0  
#   AWLEN    integral  4     'd0  
#   AWSIZE   integral  3     'd0  
#   AWBURST  integral  2     'd0  
#   WID      integral  4     'd0  
#   BID      integral  4     'd0  
#   BRESP    integral  2     'd0  
#   ARID     integral  4     'd0  
#   ARADDR   integral  32    'h0  
#   ARLEN    integral  8     'd0  
#   ARSIZE   integral  3     'd0  
#   ARBURST  integral  2     'd0  
#   RID      integral  4     'd0  
# --------------------------------
# 
# UVM_INFO ../slave_agent_top/slave_monitor.sv(161) @ 1165000: uvm_test_top.envh.sagt_top.sagt[1].smonh [slave_monitor] Printing from wresponse collect task --------------------------------
# Name       Type      Size  Value
# --------------------------------
# xtn3       axi_xtn   -     @1985
#   AWID     integral  4     'd0  
#   AWADDR   integral  32    'h0  
#   AWLEN    integral  4     'd0  
#   AWSIZE   integral  3     'd0  
#   AWBURST  integral  2     'd0  
#   WID      integral  4     'd0  
#   BID      integral  4     'd0  
#   BRESP    integral  2     'd0  
#   ARID     integral  4     'd0  
#   ARADDR   integral  32    'h0  
#   ARLEN    integral  8     'd0  
#   ARSIZE   integral  3     'd0  
#   ARBURST  integral  2     'd0  
#   RID      integral  4     'd0  
# --------------------------------
# 
# end of drive_wdata
# start ofdrive_bresp
# end of drive_wresp
# UVM_INFO ../master_agent_top/master_monitor.sv(165) @ 1195000: uvm_test_top.envh.magt_top.magt[1].mmonh [master_monitor] Printing from wresponse collect task --------------------------------
# Name       Type      Size  Value
# --------------------------------
# xtn3       axi_xtn   -     @2047
#   AWID     integral  4     'd0  
#   AWADDR   integral  32    'h0  
#   AWLEN    integral  4     'd0  
#   AWSIZE   integral  3     'd0  
#   AWBURST  integral  2     'd0  
#   WID      integral  4     'd0  
#   BID      integral  4     'd0  
#   BRESP    integral  2     'd0  
#   ARID     integral  4     'd0  
#   ARADDR   integral  32    'h0  
#   ARLEN    integral  8     'd0  
#   ARSIZE   integral  3     'd0  
#   ARBURST  integral  2     'd0  
#   RID      integral  4     'd0  
# --------------------------------
# 
# UVM_INFO ../master_agent_top/master_monitor.sv(182) @ 1215000: uvm_test_top.envh.magt_top.magt[1].mmonh [master_monitor] Printing from waddr collect task ------------------------------------
# Name       Type      Size  Value    
# ------------------------------------
# xtn3       axi_xtn   -     @2047    
#   AWID     integral  4     'd0      
#   AWADDR   integral  32    'h0      
#   AWLEN    integral  4     'd0      
#   AWSIZE   integral  3     'd0      
#   AWBURST  integral  2     'd0      
#   WID      integral  4     'd0      
#   BID      integral  4     'd0      
#   BRESP    integral  2     'd0      
#   ARID     integral  4     15       
#   ARADDR   integral  32    'h1dd643b
#   ARLEN    integral  8     'd3      
#   ARSIZE   integral  3     'd0      
#   ARBURST  integral  2     2        
#   RID      integral  4     'd0      
# ------------------------------------
# 
# end of drive_bresp
# ** Warning: (vsim-8630) Infinity results from division operation.
#    Time: 1225 ns  Iteration: 4  Process: /axi_test_pkg::master_monitor::collect_data/#FORK#82_7feff1c9e55 File: ../tb/axi_xtn.sv Line: 203
# UVM_INFO ../slave_agent_top/slave_monitor.sv(178) @ 1235000: uvm_test_top.envh.sagt_top.sagt[1].smonh [slave_monitor] Printing from waddr collect task ------------------------------------
# Name       Type      Size  Value    
# ------------------------------------
# xtn3       axi_xtn   -     @1985    
#   AWID     integral  4     'd0      
#   AWADDR   integral  32    'h0      
#   AWLEN    integral  4     'd0      
#   AWSIZE   integral  3     'd0      
#   AWBURST  integral  2     'd0      
#   WID      integral  4     'd0      
#   BID      integral  4     'd0      
#   BRESP    integral  2     'd0      
#   ARID     integral  4     'd0      
#   ARADDR   integral  32    'h1dd643b
#   ARLEN    integral  8     'd3      
#   ARSIZE   integral  3     'd0      
#   ARBURST  integral  2     2        
#   RID      integral  4     'd0      
# ------------------------------------
# 
# ** Warning: (vsim-8630) Infinity results from division operation.
#    Time: 1245 ns  Iteration: 3  Process: /axi_test_pkg::slave_monitor::collect_data/#FORK#77_7feff04b79e File: ../tb/axi_xtn.sv Line: 203
# end of drive_raddr
# start of drive_rdata
# end of slave_addr
# start of slave_addr
# start of slave_rdata
# UVM_INFO ../slave_agent_top/slave_monitor.sv(203) @ 1285000: uvm_test_top.envh.sagt_top.sagt[1].smonh [slave_monitor] Printing from wdata collect task -------------------------------------
# Name       Type      Size  Value     
# -------------------------------------
# xtn3       axi_xtn   -     @1985     
#   AWID     integral  4     'd0       
#   AWADDR   integral  32    'h0       
#   AWLEN    integral  4     'd0       
#   AWSIZE   integral  3     'd0       
#   AWBURST  integral  2     'd0       
#   WID      integral  4     'd0       
#   BID      integral  4     'd0       
#   BRESP    integral  2     'd0       
#   ARID     integral  4     'd0       
#   ARADDR   integral  32    'h1dd643b 
#   ARLEN    integral  8     'd3       
#   ARSIZE   integral  3     'd0       
#   ARBURST  integral  2     2         
#   RID      integral  4     'd0       
#   RDATA    integral  32    'hb958e057
#   RRESP    integral  2     'd0       
#   RDATA    integral  32    'hb958e057
#   RRESP    integral  2     'd0       
#   RDATA    integral  32    'hb958e057
#   RRESP    integral  2     'd0       
#   RDATA    integral  32    'hb958e057
#   RRESP    integral  2     'd0       
# -------------------------------------
# 
# UVM_INFO ../master_agent_top/master_monitor.sv(207) @ 1295000: uvm_test_top.envh.magt_top.magt[1].mmonh [master_monitor] Printing from wdata collect task -------------------------------------
# Name       Type      Size  Value     
# -------------------------------------
# xtn3       axi_xtn   -     @2047     
#   AWID     integral  4     'd0       
#   AWADDR   integral  32    'h0       
#   AWLEN    integral  4     'd0       
#   AWSIZE   integral  3     'd0       
#   AWBURST  integral  2     'd0       
#   WID      integral  4     'd0       
#   BID      integral  4     'd0       
#   BRESP    integral  2     'd0       
#   ARID     integral  4     15        
#   ARADDR   integral  32    'h1dd643b 
#   ARLEN    integral  8     'd3       
#   ARSIZE   integral  3     'd0       
#   ARBURST  integral  2     2         
#   RID      integral  4     15        
#   RDATA    integral  32    'hb958e057
#   RRESP    integral  2     'd0       
#   RDATA    integral  32    'hb958e057
#   RRESP    integral  2     'd0       
#   RDATA    integral  32    'hb958e057
#   RRESP    integral  2     'd0       
#   RDATA    integral  32    'hb958e057
#   RRESP    integral  2     'd0       
# -------------------------------------
# 
# end of slave_rdata
# end of drive_rdata
# UVM_INFO ../master_agent_top/master_monitor.sv(104) @ 1455000: uvm_test_top.envh.magt_top.magt[2].mmonh [master_monitor] Printing from waddr collect task ------------------------------------
# Name       Type      Size  Value    
# ------------------------------------
# xtn        axi_xtn   -     @2033    
#   AWID     integral  4     'd6      
#   AWADDR   integral  32    'h28d6ed4
#   AWLEN    integral  4     'd7      
#   AWSIZE   integral  3     'd2      
#   AWBURST  integral  2     2        
#   WID      integral  4     'd0      
#   BID      integral  4     'd0      
#   BRESP    integral  2     'd0      
#   ARID     integral  4     'd0      
#   ARADDR   integral  32    'h0      
#   ARLEN    integral  8     'd0      
#   ARSIZE   integral  3     'd0      
#   ARBURST  integral  2     'd0      
#   RID      integral  4     'd0      
# ------------------------------------
# 
# ** Warning: (vsim-8630) Infinity results from division operation.
#    Time: 1465 ns  Iteration: 4  Process: /axi_test_pkg::master_monitor::collect_data/#FORK#59_7feff1c9c40 File: ../tb/axi_xtn.sv Line: 136
# UVM_INFO ../slave_agent_top/slave_monitor.sv(100) @ 1475000: uvm_test_top.envh.sagt_top.sagt[2].smonh [slave_monitor] Printing from waddr collect task ------------------------------------
# Name       Type      Size  Value    
# ------------------------------------
# xtn        axi_xtn   -     @1955    
#   AWID     integral  4     'd0      
#   AWADDR   integral  32    'h28d6ed4
#   AWLEN    integral  4     'd7      
#   AWSIZE   integral  3     'd2      
#   AWBURST  integral  2     2        
#   WID      integral  4     'd0      
#   BID      integral  4     'd0      
#   BRESP    integral  2     'd0      
#   ARID     integral  4     'd0      
#   ARADDR   integral  32    'h0      
#   ARLEN    integral  8     'd0      
#   ARSIZE   integral  3     'd0      
#   ARBURST  integral  2     'd0      
#   RID      integral  4     'd0      
# ------------------------------------
# 
# end of read_awaddr
# start of read_awaddr
# start of read_data
# ** Warning: (vsim-8630) Infinity results from division operation.
#    Time: 1485 ns  Iteration: 3  Process: /axi_test_pkg::slave_driver::drive/#FORK#58_7feff49de30 File: ../tb/axi_xtn.sv Line: 136
# aligned:28d6ed4
# address calculated in slave side '{42823380, 42823384, 42823388, 42823392, 42823396, 42823400, 42823404, 42823408}
# ** Warning: (vsim-8630) Infinity results from division operation.
#    Time: 1485 ns  Iteration: 3  Process: /axi_test_pkg::slave_monitor::collect_data/#FORK#55_7feff49ddd4 File: ../tb/axi_xtn.sv Line: 136
# end of drive_awadrr
# UVM_INFO ../master_agent_top/master_driver.sv(46) @ 1505000: uvm_test_top.envh.magt_top.magt[2].mdrvh [master_driver] Prinitng from driver ---------------------------------------------------------------------------------------------------
# Name                           Type      Size  Value                                               
# ---------------------------------------------------------------------------------------------------
# req                            axi_xtn   -     @2090                                               
#   begin_time                   time      64    0                                                   
#   depth                        int       32    'd2                                                 
#   parent sequence (name)       string    10    wrap_seq10                                          
#   parent sequence (full name)  string    52    uvm_test_top.envh.magt_top.magt[2].mseqrh.wrap_seq10
#   sequencer                    string    41    uvm_test_top.envh.magt_top.magt[2].mseqrh           
#   AWID                         integral  4     'd6                                                 
#   AWADDR                       integral  32    'h28d6ed4                                           
#   AWLEN                        integral  4     'd7                                                 
#   AWSIZE                       integral  3     'd2                                                 
#   AWBURST                      integral  2     2                                                   
#   WID                          integral  4     'd6                                                 
#   WDATA                        integral  32    'h1a689b78                                          
#   WSTRB                        integral  4     'b1111                                              
#   WLAST                        integral  1     'dX                                                 
#   WDATA                        integral  32    'he1c48e52                                          
#   WSTRB                        integral  4     'b1111                                              
#   WLAST                        integral  1     'dX                                                 
#   WDATA                        integral  32    'hb4ed06bf                                          
#   WSTRB                        integral  4     'b1111                                              
#   WLAST                        integral  1     'dX                                                 
#   WDATA                        integral  32    'h64f3fda                                           
#   WSTRB                        integral  4     'b1111                                              
#   WLAST                        integral  1     'dX                                                 
#   WDATA                        integral  32    'h6fd4e0e                                           
#   WSTRB                        integral  4     'b1111                                              
#   WLAST                        integral  1     'dX                                                 
#   WDATA                        integral  32    'h2291953f                                          
#   WSTRB                        integral  4     'b1111                                              
#   WLAST                        integral  1     'dX                                                 
#   WDATA                        integral  32    'h20c0c8da                                          
#   WSTRB                        integral  4     'b1111                                              
#   WLAST                        integral  1     'dX                                                 
#   WDATA                        integral  32    'h98fd50d                                           
#   WSTRB                        integral  4     'b1111                                              
#   WLAST                        integral  1     'dX                                                 
#   BID                          integral  4     'd6                                                 
#   BRESP                        integral  2     'd0                                                 
#   ARID                         integral  4     14                                                  
#   ARADDR                       integral  32    'h21ae068                                           
#   ARLEN                        integral  8     'd3                                                 
#   ARSIZE                       integral  3     'd2                                                 
#   ARBURST                      integral  2     2                                                   
#   RID                          integral  4     14                                                  
#   RDATA                        integral  32    'hf79262e7                                          
#   RRESP                        integral  2     'd0                                                 
#   RDATA                        integral  32    'hc4af0dc7                                          
#   RRESP                        integral  2     'd0                                                 
#   RDATA                        integral  32    'hbd0451b9                                          
#   RRESP                        integral  2     'd0                                                 
#   RDATA                        integral  32    'h42e9bfff                                          
#   RRESP                        integral  2     'd0                                                 
# ---------------------------------------------------------------------------------------------------
# 
# start ofdrive_wdata
# slave driver start of awvalid
# WSTRB in slave driver is:15
# value inside mem is: 443063160
# UVM_INFO ../master_agent_top/master_monitor.sv(156) @ 1535000: uvm_test_top.envh.magt_top.magt[2].mmonh [master_monitor] Printing from wdata collect task -------------------------------------
# Name       Type      Size  Value     
# -------------------------------------
# xtn        axi_xtn   -     @2420     
#   AWID     integral  4     'd0       
#   AWADDR   integral  32    'h0       
#   AWLEN    integral  4     'd0       
#   AWSIZE   integral  3     'd0       
#   AWBURST  integral  2     'd0       
#   WID      integral  4     'd6       
#   WDATA    integral  32    'h1a689b78
#   WSTRB    integral  4     'b1111    
#   WLAST    integral  1     'd0       
#   BID      integral  4     'd0       
#   BRESP    integral  2     'd0       
#   ARID     integral  4     'd0       
#   ARADDR   integral  32    'h0       
#   ARLEN    integral  8     'd0       
#   ARSIZE   integral  3     'd0       
#   ARBURST  integral  2     'd0       
#   RID      integral  4     'd0       
# -------------------------------------
# 
# UVM_INFO ../slave_agent_top/slave_monitor.sv(152) @ 1545000: uvm_test_top.envh.sagt_top.sagt[2].smonh [slave_monitor] Printing from wdata collect task -------------------------------------
# Name       Type      Size  Value     
# -------------------------------------
# xtn        axi_xtn   -     @2432     
#   AWID     integral  4     'd0       
#   AWADDR   integral  32    'h0       
#   AWLEN    integral  4     'd0       
#   AWSIZE   integral  3     'd0       
#   AWBURST  integral  2     'd0       
#   WID      integral  4     'd0       
#   WDATA    integral  32    'h1a689b78
#   WSTRB    integral  4     'b1111    
#   WLAST    integral  1     'd0       
#   BID      integral  4     'd0       
#   BRESP    integral  2     'd0       
#   ARID     integral  4     'd0       
#   ARADDR   integral  32    'h0       
#   ARLEN    integral  8     'd0       
#   ARSIZE   integral  3     'd0       
#   ARBURST  integral  2     'd0       
#   RID      integral  4     'd0       
# -------------------------------------
# 
# slave driver start of awvalid
# WSTRB in slave driver is:15
# value inside mem is: -507212206
# slave driver start of awvalid
# WSTRB in slave driver is:15
# value inside mem is: -1259534657
# slave driver start of awvalid
# WSTRB in slave driver is:15
# value inside mem is: 105856986
# slave driver start of awvalid
# WSTRB in slave driver is:15
# value inside mem is: 117263886
# slave driver start of awvalid
# WSTRB in slave driver is:15
# value inside mem is: 579966271
# slave driver start of awvalid
# WSTRB in slave driver is:15
# value inside mem is: 549505242
# slave driver start of awvalid
# WSTRB in slave driver is:15
# value inside mem is: 160421133
# memory is '{42823380:443063160, 42823384:-507212206, 42823388:-1259534657, 42823392:105856986, 42823396:117263886, 42823400:579966271, 42823404:549505242, 42823408:160421133 }
# end of read_data
# start of driver_wresp
# BID sent is  0
# UVM_INFO ../slave_agent_top/slave_monitor.sv(161) @ 1795000: uvm_test_top.envh.sagt_top.sagt[2].smonh [slave_monitor] Printing from wresponse collect task --------------------------------
# Name       Type      Size  Value
# --------------------------------
# xtn3       axi_xtn   -     @1963
#   AWID     integral  4     'd0  
#   AWADDR   integral  32    'h0  
#   AWLEN    integral  4     'd0  
#   AWSIZE   integral  3     'd0  
#   AWBURST  integral  2     'd0  
#   WID      integral  4     'd0  
#   BID      integral  4     'd0  
#   BRESP    integral  2     'd0  
#   ARID     integral  4     'd0  
#   ARADDR   integral  32    'h0  
#   ARLEN    integral  8     'd0  
#   ARSIZE   integral  3     'd0  
#   ARBURST  integral  2     'd0  
#   RID      integral  4     'd0  
# --------------------------------
# 
# UVM_INFO ../slave_agent_top/slave_monitor.sv(161) @ 1795000: uvm_test_top.envh.sagt_top.sagt[2].smonh [slave_monitor] Printing from wresponse collect task --------------------------------
# Name       Type      Size  Value
# --------------------------------
# xtn3       axi_xtn   -     @1963
#   AWID     integral  4     'd0  
#   AWADDR   integral  32    'h0  
#   AWLEN    integral  4     'd0  
#   AWSIZE   integral  3     'd0  
#   AWBURST  integral  2     'd0  
#   WID      integral  4     'd0  
#   BID      integral  4     'd0  
#   BRESP    integral  2     'd0  
#   ARID     integral  4     'd0  
#   ARADDR   integral  32    'h0  
#   ARLEN    integral  8     'd0  
#   ARSIZE   integral  3     'd0  
#   ARBURST  integral  2     'd0  
#   RID      integral  4     'd0  
# --------------------------------
# 
# end of drive_wresp
# end of drive_wdata
# start ofdrive_bresp
# UVM_INFO ../master_agent_top/master_monitor.sv(165) @ 1845000: uvm_test_top.envh.magt_top.magt[2].mmonh [master_monitor] Printing from wresponse collect task --------------------------------
# Name       Type      Size  Value
# --------------------------------
# xtn3       axi_xtn   -     @2037
#   AWID     integral  4     'd0  
#   AWADDR   integral  32    'h0  
#   AWLEN    integral  4     'd0  
#   AWSIZE   integral  3     'd0  
#   AWBURST  integral  2     'd0  
#   WID      integral  4     'd0  
#   BID      integral  4     'd0  
#   BRESP    integral  2     'd0  
#   ARID     integral  4     'd0  
#   ARADDR   integral  32    'h0  
#   ARLEN    integral  8     'd0  
#   ARSIZE   integral  3     'd0  
#   ARBURST  integral  2     'd0  
#   RID      integral  4     'd0  
# --------------------------------
# 
# UVM_INFO ../master_agent_top/master_monitor.sv(182) @ 1865000: uvm_test_top.envh.magt_top.magt[2].mmonh [master_monitor] Printing from waddr collect task ------------------------------------
# Name       Type      Size  Value    
# ------------------------------------
# xtn3       axi_xtn   -     @2037    
#   AWID     integral  4     'd0      
#   AWADDR   integral  32    'h0      
#   AWLEN    integral  4     'd0      
#   AWSIZE   integral  3     'd0      
#   AWBURST  integral  2     'd0      
#   WID      integral  4     'd0      
#   BID      integral  4     'd0      
#   BRESP    integral  2     'd0      
#   ARID     integral  4     14       
#   ARADDR   integral  32    'h21ae068
#   ARLEN    integral  8     'd3      
#   ARSIZE   integral  3     'd2      
#   ARBURST  integral  2     2        
#   RID      integral  4     'd0      
# ------------------------------------
# 
# ** Warning: (vsim-8630) Infinity results from division operation.
#    Time: 1875 ns  Iteration: 4  Process: /axi_test_pkg::master_monitor::collect_data/#FORK#82_7feff1c9c7c File: ../tb/axi_xtn.sv Line: 203
# UVM_INFO ../slave_agent_top/slave_monitor.sv(178) @ 1885000: uvm_test_top.envh.sagt_top.sagt[2].smonh [slave_monitor] Printing from waddr collect task ------------------------------------
# Name       Type      Size  Value    
# ------------------------------------
# xtn3       axi_xtn   -     @1963    
#   AWID     integral  4     'd0      
#   AWADDR   integral  32    'h0      
#   AWLEN    integral  4     'd0      
#   AWSIZE   integral  3     'd0      
#   AWBURST  integral  2     'd0      
#   WID      integral  4     'd0      
#   BID      integral  4     'd0      
#   BRESP    integral  2     'd0      
#   ARID     integral  4     'd0      
#   ARADDR   integral  32    'h21ae068
#   ARLEN    integral  8     'd3      
#   ARSIZE   integral  3     'd2      
#   ARBURST  integral  2     2        
#   RID      integral  4     'd0      
# ------------------------------------
# 
# end of drive_bresp
# ** Warning: (vsim-8630) Infinity results from division operation.
#    Time: 1895 ns  Iteration: 3  Process: /axi_test_pkg::slave_monitor::collect_data/#FORK#77_7feff49dd9c File: ../tb/axi_xtn.sv Line: 203
# end of drive_raddr
# start of drive_rdata
# end of slave_addr
# start of slave_addr
# start of slave_rdata
# UVM_INFO ../slave_agent_top/slave_monitor.sv(203) @ 1925000: uvm_test_top.envh.sagt_top.sagt[2].smonh [slave_monitor] Printing from wdata collect task -------------------------------------
# Name       Type      Size  Value     
# -------------------------------------
# xtn3       axi_xtn   -     @1963     
#   AWID     integral  4     'd0       
#   AWADDR   integral  32    'h0       
#   AWLEN    integral  4     'd0       
#   AWSIZE   integral  3     'd0       
#   AWBURST  integral  2     'd0       
#   WID      integral  4     'd0       
#   BID      integral  4     'd0       
#   BRESP    integral  2     'd0       
#   ARID     integral  4     'd0       
#   ARADDR   integral  32    'h21ae068 
#   ARLEN    integral  8     'd3       
#   ARSIZE   integral  3     'd2       
#   ARBURST  integral  2     2         
#   RID      integral  4     'd0       
#   RDATA    integral  32    'h1b377a3a
#   RRESP    integral  2     'd0       
#   RDATA    integral  32    'h1b377a3a
#   RRESP    integral  2     'd0       
#   RDATA    integral  32    'h1b377a3a
#   RRESP    integral  2     'd0       
#   RDATA    integral  32    'h1b377a3a
#   RRESP    integral  2     'd0       
# -------------------------------------
# 
# UVM_INFO ../master_agent_top/master_monitor.sv(207) @ 1935000: uvm_test_top.envh.magt_top.magt[2].mmonh [master_monitor] Printing from wdata collect task -------------------------------------
# Name       Type      Size  Value     
# -------------------------------------
# xtn3       axi_xtn   -     @2037     
#   AWID     integral  4     'd0       
#   AWADDR   integral  32    'h0       
#   AWLEN    integral  4     'd0       
#   AWSIZE   integral  3     'd0       
#   AWBURST  integral  2     'd0       
#   WID      integral  4     'd0       
#   BID      integral  4     'd0       
#   BRESP    integral  2     'd0       
#   ARID     integral  4     14        
#   ARADDR   integral  32    'h21ae068 
#   ARLEN    integral  8     'd3       
#   ARSIZE   integral  3     'd2       
#   ARBURST  integral  2     2         
#   RID      integral  4     14        
#   RDATA    integral  32    'h1b377a3a
#   RRESP    integral  2     'd0       
#   RDATA    integral  32    'h1b377a3a
#   RRESP    integral  2     'd0       
#   RDATA    integral  32    'h1b377a3a
#   RRESP    integral  2     'd0       
#   RDATA    integral  32    'h1b377a3a
#   RRESP    integral  2     'd0       
# -------------------------------------
# 
# UVM_INFO ../master_agent_top/master_monitor.sv(104) @ 2085000: uvm_test_top.envh.magt_top.magt[3].mmonh [master_monitor] Printing from waddr collect task ------------------------------------
# Name       Type      Size  Value    
# ------------------------------------
# xtn        axi_xtn   -     @2023    
#   AWID     integral  4     13       
#   AWADDR   integral  32    'h3328f68
#   AWLEN    integral  4     'd1      
#   AWSIZE   integral  3     'd2      
#   AWBURST  integral  2     2        
#   WID      integral  4     'd0      
#   BID      integral  4     'd0      
#   BRESP    integral  2     'd0      
#   ARID     integral  4     'd0      
#   ARADDR   integral  32    'h0      
#   ARLEN    integral  8     'd0      
#   ARSIZE   integral  3     'd0      
#   ARBURST  integral  2     'd0      
#   RID      integral  4     'd0      
# ------------------------------------
# 
# end of slave_rdata
# end of drive_awadrr
# UVM_INFO ../master_agent_top/master_driver.sv(46) @ 2095000: uvm_test_top.envh.magt_top.magt[3].mdrvh [master_driver] Prinitng from driver ---------------------------------------------------------------------------------------------------
# Name                           Type      Size  Value                                               
# ---------------------------------------------------------------------------------------------------
# req                            axi_xtn   -     @2094                                               
#   begin_time                   time      64    0                                                   
#   depth                        int       32    'd2                                                 
#   parent sequence (name)       string    10    wrap_seq11                                          
#   parent sequence (full name)  string    52    uvm_test_top.envh.magt_top.magt[3].mseqrh.wrap_seq11
#   sequencer                    string    41    uvm_test_top.envh.magt_top.magt[3].mseqrh           
#   AWID                         integral  4     13                                                  
#   AWADDR                       integral  32    'h3328f68                                           
#   AWLEN                        integral  4     'd1                                                 
#   AWSIZE                       integral  3     'd2                                                 
#   AWBURST                      integral  2     2                                                   
#   WID                          integral  4     13                                                  
#   WDATA                        integral  32    'h7ecb6726                                          
#   WSTRB                        integral  4     'b1111                                              
#   WLAST                        integral  1     'dX                                                 
#   WDATA                        integral  32    'h5428e6a2                                          
#   WSTRB                        integral  4     'b1111                                              
#   WLAST                        integral  1     'dX                                                 
#   BID                          integral  4     13                                                  
#   BRESP                        integral  2     'd0                                                 
#   ARID                         integral  4     13                                                  
#   ARADDR                       integral  32    'h3627c50                                           
#   ARLEN                        integral  8     'd3                                                 
#   ARSIZE                       integral  3     'd2                                                 
#   ARBURST                      integral  2     2                                                   
#   RID                          integral  4     13                                                  
#   RDATA                        integral  32    'hc86f07d                                           
#   RRESP                        integral  2     'd0                                                 
#   RDATA                        integral  32    'h24715db                                           
#   RRESP                        integral  2     'd0                                                 
#   RDATA                        integral  32    'hc73034f7                                          
#   RRESP                        integral  2     'd0                                                 
#   RDATA                        integral  32    'h53887c79                                          
#   RRESP                        integral  2     'd0                                                 
# ---------------------------------------------------------------------------------------------------
# 
# start ofdrive_wdata
# ** Warning: (vsim-8630) Infinity results from division operation.
#    Time: 2095 ns  Iteration: 4  Process: /axi_test_pkg::master_monitor::collect_data/#FORK#59_7feff1c9ac4 File: ../tb/axi_xtn.sv Line: 136
# UVM_INFO ../slave_agent_top/slave_monitor.sv(100) @ 2105000: uvm_test_top.envh.sagt_top.sagt[3].smonh [slave_monitor] Printing from waddr collect task ------------------------------------
# Name       Type      Size  Value    
# ------------------------------------
# xtn        axi_xtn   -     @1933    
#   AWID     integral  4     'd0      
#   AWADDR   integral  32    'h3328f68
#   AWLEN    integral  4     'd1      
#   AWSIZE   integral  3     'd2      
#   AWBURST  integral  2     2        
#   WID      integral  4     'd0      
#   BID      integral  4     'd0      
#   BRESP    integral  2     'd0      
#   ARID     integral  4     'd0      
#   ARADDR   integral  32    'h0      
#   ARLEN    integral  8     'd0      
#   ARSIZE   integral  3     'd0      
#   ARBURST  integral  2     'd0      
#   RID      integral  4     'd0      
# ------------------------------------
# 
# end of drive_rdata
# ** Warning: (vsim-8630) Infinity results from division operation.
#    Time: 2115 ns  Iteration: 5  Process: /axi_test_pkg::slave_monitor::collect_data/#FORK#55_7feff49df33 File: ../tb/axi_xtn.sv Line: 136
# UVM_INFO ../master_agent_top/master_monitor.sv(156) @ 2125000: uvm_test_top.envh.magt_top.magt[3].mmonh [master_monitor] Printing from wdata collect task -------------------------------------
# Name       Type      Size  Value     
# -------------------------------------
# xtn        axi_xtn   -     @2473     
#   AWID     integral  4     'd0       
#   AWADDR   integral  32    'h0       
#   AWLEN    integral  4     'd0       
#   AWSIZE   integral  3     'd0       
#   AWBURST  integral  2     'd0       
#   WID      integral  4     13        
#   WDATA    integral  32    'h7ecb6726
#   WSTRB    integral  4     'b1111    
#   WLAST    integral  1     'd0       
#   BID      integral  4     'd0       
#   BRESP    integral  2     'd0       
#   ARID     integral  4     'd0       
#   ARADDR   integral  32    'h0       
#   ARLEN    integral  8     'd0       
#   ARSIZE   integral  3     'd0       
#   ARBURST  integral  2     'd0       
#   RID      integral  4     'd0       
# -------------------------------------
# 
# end of read_awaddr
# start of read_awaddr
# start of read_data
# ** Warning: (vsim-8630) Infinity results from division operation.
#    Time: 2155 ns  Iteration: 4  Process: /axi_test_pkg::slave_driver::drive/#FORK#58_7feff49df90 File: ../tb/axi_xtn.sv Line: 136
# aligned:3328f68
# address calculated in slave side '{53645160, 53645164}
# slave driver start of awvalid
# WSTRB in slave driver is:15
# value inside mem is: 2127259430
# slave driver start of awvalid
# WSTRB in slave driver is:15
# value inside mem is: 1411966626
# memory is '{53645160:2127259430, 53645164:1411966626 }
# end of read_data
# UVM_INFO ../slave_agent_top/slave_monitor.sv(152) @ 2175000: uvm_test_top.envh.sagt_top.sagt[3].smonh [slave_monitor] Printing from wdata collect task -------------------------------------
# Name       Type      Size  Value     
# -------------------------------------
# xtn        axi_xtn   -     @2483     
#   AWID     integral  4     'd0       
#   AWADDR   integral  32    'h0       
#   AWLEN    integral  4     'd0       
#   AWSIZE   integral  3     'd0       
#   AWBURST  integral  2     'd0       
#   WID      integral  4     'd0       
#   WDATA    integral  32    'h7ecb6726
#   WSTRB    integral  4     'b1111    
#   WLAST    integral  1     'd0       
#   BID      integral  4     'd0       
#   BRESP    integral  2     'd0       
#   ARID     integral  4     'd0       
#   ARADDR   integral  32    'h0       
#   ARLEN    integral  8     'd0       
#   ARSIZE   integral  3     'd0       
#   ARBURST  integral  2     'd0       
#   RID      integral  4     'd0       
# -------------------------------------
# 
# start of driver_wresp
# BID sent is  0
# UVM_INFO ../slave_agent_top/slave_monitor.sv(161) @ 2185000: uvm_test_top.envh.sagt_top.sagt[3].smonh [slave_monitor] Printing from wresponse collect task --------------------------------
# Name       Type      Size  Value
# --------------------------------
# xtn3       axi_xtn   -     @1941
#   AWID     integral  4     'd0  
#   AWADDR   integral  32    'h0  
#   AWLEN    integral  4     'd0  
#   AWSIZE   integral  3     'd0  
#   AWBURST  integral  2     'd0  
#   WID      integral  4     'd0  
#   BID      integral  4     'd0  
#   BRESP    integral  2     'd0  
#   ARID     integral  4     'd0  
#   ARADDR   integral  32    'h0  
#   ARLEN    integral  8     'd0  
#   ARSIZE   integral  3     'd0  
#   ARBURST  integral  2     'd0  
#   RID      integral  4     'd0  
# --------------------------------
# 
# UVM_INFO ../slave_agent_top/slave_monitor.sv(161) @ 2185000: uvm_test_top.envh.sagt_top.sagt[3].smonh [slave_monitor] Printing from wresponse collect task --------------------------------
# Name       Type      Size  Value
# --------------------------------
# xtn3       axi_xtn   -     @1941
#   AWID     integral  4     'd0  
#   AWADDR   integral  32    'h0  
#   AWLEN    integral  4     'd0  
#   AWSIZE   integral  3     'd0  
#   AWBURST  integral  2     'd0  
#   WID      integral  4     'd0  
#   BID      integral  4     'd0  
#   BRESP    integral  2     'd0  
#   ARID     integral  4     'd0  
#   ARADDR   integral  32    'h0  
#   ARLEN    integral  8     'd0  
#   ARSIZE   integral  3     'd0  
#   ARBURST  integral  2     'd0  
#   RID      integral  4     'd0  
# --------------------------------
# 
# end of drive_wdata
# start ofdrive_bresp
# UVM_INFO ../master_agent_top/master_monitor.sv(165) @ 2225000: uvm_test_top.envh.magt_top.magt[3].mmonh [master_monitor] Printing from wresponse collect task --------------------------------
# Name       Type      Size  Value
# --------------------------------
# xtn3       axi_xtn   -     @2027
#   AWID     integral  4     'd0  
#   AWADDR   integral  32    'h0  
#   AWLEN    integral  4     'd0  
#   AWSIZE   integral  3     'd0  
#   AWBURST  integral  2     'd0  
#   WID      integral  4     'd0  
#   BID      integral  4     'd0  
#   BRESP    integral  2     'd0  
#   ARID     integral  4     'd0  
#   ARADDR   integral  32    'h0  
#   ARLEN    integral  8     'd0  
#   ARSIZE   integral  3     'd0  
#   ARBURST  integral  2     'd0  
#   RID      integral  4     'd0  
# --------------------------------
# 
# end of drive_wresp
# UVM_INFO ../master_agent_top/master_monitor.sv(182) @ 2245000: uvm_test_top.envh.magt_top.magt[3].mmonh [master_monitor] Printing from waddr collect task ------------------------------------
# Name       Type      Size  Value    
# ------------------------------------
# xtn3       axi_xtn   -     @2027    
#   AWID     integral  4     'd0      
#   AWADDR   integral  32    'h0      
#   AWLEN    integral  4     'd0      
#   AWSIZE   integral  3     'd0      
#   AWBURST  integral  2     'd0      
#   WID      integral  4     'd0      
#   BID      integral  4     'd0      
#   BRESP    integral  2     'd0      
#   ARID     integral  4     13       
#   ARADDR   integral  32    'h3627c50
#   ARLEN    integral  8     'd3      
#   ARSIZE   integral  3     'd2      
#   ARBURST  integral  2     2        
#   RID      integral  4     'd0      
# ------------------------------------
# 
# ** Warning: (vsim-8630) Infinity results from division operation.
#    Time: 2255 ns  Iteration: 4  Process: /axi_test_pkg::master_monitor::collect_data/#FORK#82_7feff1c9b00 File: ../tb/axi_xtn.sv Line: 203
# UVM_INFO ../slave_agent_top/slave_monitor.sv(178) @ 2265000: uvm_test_top.envh.sagt_top.sagt[3].smonh [slave_monitor] Printing from waddr collect task ------------------------------------
# Name       Type      Size  Value    
# ------------------------------------
# xtn3       axi_xtn   -     @1941    
#   AWID     integral  4     'd0      
#   AWADDR   integral  32    'h0      
#   AWLEN    integral  4     'd0      
#   AWSIZE   integral  3     'd0      
#   AWBURST  integral  2     'd0      
#   WID      integral  4     'd0      
#   BID      integral  4     'd0      
#   BRESP    integral  2     'd0      
#   ARID     integral  4     'd0      
#   ARADDR   integral  32    'h3627c50
#   ARLEN    integral  8     'd3      
#   ARSIZE   integral  3     'd2      
#   ARBURST  integral  2     2        
#   RID      integral  4     'd0      
# ------------------------------------
# 
# end of drive_raddr
# start of drive_rdata
# end of drive_bresp
# ** Warning: (vsim-8630) Infinity results from division operation.
#    Time: 2275 ns  Iteration: 3  Process: /axi_test_pkg::slave_monitor::collect_data/#FORK#77_7feff49defc File: ../tb/axi_xtn.sv Line: 203
# end of slave_addr
# start of slave_addr
# start of slave_rdata
# UVM_INFO ../slave_agent_top/slave_monitor.sv(203) @ 2295000: uvm_test_top.envh.sagt_top.sagt[3].smonh [slave_monitor] Printing from wdata collect task -------------------------------------
# Name       Type      Size  Value     
# -------------------------------------
# xtn3       axi_xtn   -     @1941     
#   AWID     integral  4     'd0       
#   AWADDR   integral  32    'h0       
#   AWLEN    integral  4     'd0       
#   AWSIZE   integral  3     'd0       
#   AWBURST  integral  2     'd0       
#   WID      integral  4     'd0       
#   BID      integral  4     'd0       
#   BRESP    integral  2     'd0       
#   ARID     integral  4     'd0       
#   ARADDR   integral  32    'h3627c50 
#   ARLEN    integral  8     'd3       
#   ARSIZE   integral  3     'd2       
#   ARBURST  integral  2     2         
#   RID      integral  4     'd0       
#   RDATA    integral  32    'h98de50d4
#   RRESP    integral  2     'd0       
#   RDATA    integral  32    'h98de50d4
#   RRESP    integral  2     'd0       
#   RDATA    integral  32    'h98de50d4
#   RRESP    integral  2     'd0       
#   RDATA    integral  32    'h98de50d4
#   RRESP    integral  2     'd0       
# -------------------------------------
# 
# UVM_INFO ../master_agent_top/master_monitor.sv(207) @ 2305000: uvm_test_top.envh.magt_top.magt[3].mmonh [master_monitor] Printing from wdata collect task -------------------------------------
# Name       Type      Size  Value     
# -------------------------------------
# xtn3       axi_xtn   -     @2027     
#   AWID     integral  4     'd0       
#   AWADDR   integral  32    'h0       
#   AWLEN    integral  4     'd0       
#   AWSIZE   integral  3     'd0       
#   AWBURST  integral  2     'd0       
#   WID      integral  4     'd0       
#   BID      integral  4     'd0       
#   BRESP    integral  2     'd0       
#   ARID     integral  4     13        
#   ARADDR   integral  32    'h3627c50 
#   ARLEN    integral  8     'd3       
#   ARSIZE   integral  3     'd2       
#   ARBURST  integral  2     2         
#   RID      integral  4     13        
#   RDATA    integral  32    'h98de50d4
#   RRESP    integral  2     'd0       
#   RDATA    integral  32    'h98de50d4
#   RRESP    integral  2     'd0       
#   RDATA    integral  32    'h98de50d4
#   RRESP    integral  2     'd0       
#   RDATA    integral  32    'h98de50d4
#   RRESP    integral  2     'd0       
# -------------------------------------
# 
# end of slave_rdata
# end of drive_rdata
# UVM_INFO verilog_src/uvm-1.1d/src/base/uvm_objection.svh(1267) @ 7095000: reporter [TEST_DONE] 'run' phase is ready to proceed to the 'extract' phase
# 
# --- UVM Report Summary ---
# 
# ** Report counts by severity
# UVM_INFO :   53
# UVM_WARNING :    0
# UVM_ERROR :    0
# UVM_FATAL :    0
# ** Report counts by id
# [Questa UVM]     2
# [RNTST]     1
# [TEST_DONE]     1
# [UVMTOP]     1
# [master_driver]     4
# [master_monitor]    20
# [slave_monitor]    24
# ** Note: $finish    : /home/cad/eda/Mentor_Graphics/Questasim/questasim/linux_x86_64/../verilog_src/uvm-1.1d/src/base/uvm_root.svh(430)
#    Time: 7095 ns  Iteration: 54  Instance: /top
# Saving coverage database on exit...
# End time: 19:56:03 on Jan 18,2026, Elapsed time: 0:00:01
# Errors: 0, Warnings: 21
