# vsim -cvgperinstance -vopt -voptargs="+acc" -coverage -sva -c -do " log -r /* ;coverage save -onexit mem_cov2;run -all; exit" -wlf wave_file2.wlf -l test2.log -sv_seed random work.top "+UVM_TESTNAME=test_fixed" 
# Start time: 11:32:59 on Feb 03,2026
# ** Note: (vsim-8009) Loading existing optimized design _opt1
# //  Questa Sim-64
# //  Version 2022.1_2 linux_x86_64 Apr  2 2022
# //
# //  Copyright 1991-2022 Mentor Graphics Corporation
# //  All Rights Reserved.
# //
# //  QuestaSim and its associated documentation contain trade
# //  secrets and commercial or financial information that are the property of
# //  Mentor Graphics Corporation and are privileged, confidential,
# //  and exempt from disclosure under the Freedom of Information Act,
# //  5 U.S.C. Section 552. Furthermore, this information
# //  is prohibited from disclosure under the Trade Secrets Act,
# //  18 U.S.C. Section 1905.
# //
# Loading sv_std.std
# Loading work.axi_mif(fast)
# Loading work.axi_sif(fast)
# Loading mtiUvm.uvm_pkg(fast)
# Loading work.axi_test_pkg(fast)
# Loading mtiUvm.questa_uvm_pkg(fast)
# Loading work.top(fast)
# Loading work.axi_mif(fast__2)
# Loading work.axi_sif(fast__2)
# Loading work.axi_interconnect_wrap_4x4(fast)
# Loading work.axi_interconnect(fast)
# Loading work.arbiter(fast)
# Loading work.priority_encoder(fast)
# Loading /home/cad/eda/Mentor_Graphics/Questasim/questasim/uvm-1.1d/linux_x86_64/uvm_dpi.so
# ** Warning: (vsim-8634) Code was not compiled with coverage options.
# Sv_Seed = 3776879175
#  log -r /* 
# coverage save -onexit mem_cov2
# run -all
# ----------------------------------------------------------------
# UVM-1.1d
# (C) 2007-2013 Mentor Graphics Corporation
# (C) 2007-2013 Cadence Design Systems, Inc.
# (C) 2006-2013 Synopsys, Inc.
# (C) 2011-2013 Cypress Semiconductor Corp.
# ----------------------------------------------------------------
# 
#   ***********       IMPORTANT RELEASE NOTES         ************
# 
#   You are using a version of the UVM library that has been compiled
#   with `UVM_NO_DEPRECATED undefined.
#   See http://www.eda.org/svdb/view.php?id=3313 for more details.
# 
#   You are using a version of the UVM library that has been compiled
#   with `UVM_OBJECT_MUST_HAVE_CONSTRUCTOR undefined.
#   See http://www.eda.org/svdb/view.php?id=3770 for more details.
# 
#       (Specify +UVM_NO_RELNOTES to turn off this notice)
# 
# UVM_INFO verilog_src/questa_uvm_pkg-1.2/src/questa_uvm_pkg.sv(277) @ 0: reporter [Questa UVM] QUESTA_UVM-1.2.3
# UVM_INFO verilog_src/questa_uvm_pkg-1.2/src/questa_uvm_pkg.sv(278) @ 0: reporter [Questa UVM]  questa_uvm::init(+struct)
# Addressing configuration for axi_interconnect instance top.DUV.axi_interconnect_inst
#  0 ( 0): 00000000 / 24 -- 00000000-00ffffff
#  1 ( 0): 01000000 / 24 -- 01000000-01ffffff
#  2 ( 0): 02000000 / 24 -- 02000000-02ffffff
#  3 ( 0): 03000000 / 24 -- 03000000-03ffffff
# UVM_INFO @ 0: reporter [RNTST] Running test test_fixed...
# UVM_INFO @ 0: reporter [UVMTOP] UVM testbench topology:
# ----------------------------------------------------------------
# Name                         Type                    Size  Value
# ----------------------------------------------------------------
# uvm_test_top                 test_fixed              -     @491 
#   envh                       environment             -     @534 
#     magt_top                 master_agent_top        -     @542 
#       magt[0]                master_agent            -     @670 
#         mdrvh                master_driver           -     @710 
#           rsp_port           uvm_analysis_port       -     @725 
#           seq_item_port      uvm_seq_item_pull_port  -     @717 
#         mmonh                master_monitor          -     @703 
#         mseqrh               master_sequencer        -     @733 
#           rsp_export         uvm_analysis_export     -     @740 
#           seq_item_export    uvm_seq_item_pull_imp   -     @834 
#           arbitration_queue  array                   0     -    
#           lock_queue         array                   0     -    
#           num_last_reqs      integral                32    'd1  
#           num_last_rsps      integral                32    'd1  
#       magt[1]                master_agent            -     @678 
#         mdrvh                master_driver           -     @858 
#           rsp_port           uvm_analysis_port       -     @873 
#           seq_item_port      uvm_seq_item_pull_port  -     @865 
#         mmonh                master_monitor          -     @851 
#         mseqrh               master_sequencer        -     @881 
#           rsp_export         uvm_analysis_export     -     @888 
#           seq_item_export    uvm_seq_item_pull_imp   -     @982 
#           arbitration_queue  array                   0     -    
#           lock_queue         array                   0     -    
#           num_last_reqs      integral                32    'd1  
#           num_last_rsps      integral                32    'd1  
#       magt[2]                master_agent            -     @686 
#         mdrvh                master_driver           -     @1006
#           rsp_port           uvm_analysis_port       -     @1021
#           seq_item_port      uvm_seq_item_pull_port  -     @1013
#         mmonh                master_monitor          -     @999 
#         mseqrh               master_sequencer        -     @1029
#           rsp_export         uvm_analysis_export     -     @1036
#           seq_item_export    uvm_seq_item_pull_imp   -     @1130
#           arbitration_queue  array                   0     -    
#           lock_queue         array                   0     -    
#           num_last_reqs      integral                32    'd1  
#           num_last_rsps      integral                32    'd1  
#       magt[3]                master_agent            -     @694 
#         mdrvh                master_driver           -     @1154
#           rsp_port           uvm_analysis_port       -     @1169
#           seq_item_port      uvm_seq_item_pull_port  -     @1161
#         mmonh                master_monitor          -     @1147
#         mseqrh               master_sequencer        -     @1177
#           rsp_export         uvm_analysis_export     -     @1184
#           seq_item_export    uvm_seq_item_pull_imp   -     @1278
#           arbitration_queue  array                   0     -    
#           lock_queue         array                   0     -    
#           num_last_reqs      integral                32    'd1  
#           num_last_rsps      integral                32    'd1  
#     req                      virtual_sequencer       -     @556 
#       rsp_export             uvm_analysis_export     -     @563 
#       seq_item_export        uvm_seq_item_pull_imp   -     @657 
#       arbitration_queue      array                   0     -    
#       lock_queue             array                   0     -    
#       num_last_reqs          integral                32    'd1  
#       num_last_rsps          integral                32    'd1  
#     sagt_top                 slave_agent_top         -     @549 
#       sagt[0]                slave_agent             -     @1303
#         sdrvh                slave_driver            -     @1343
#           rsp_port           uvm_analysis_port       -     @1358
#           seq_item_port      uvm_seq_item_pull_port  -     @1350
#         smonh                slave_monitor           -     @1336
#         sseqrh               slave_sequencer         -     @1366
#           rsp_export         uvm_analysis_export     -     @1373
#           seq_item_export    uvm_seq_item_pull_imp   -     @1467
#           arbitration_queue  array                   0     -    
#           lock_queue         array                   0     -    
#           num_last_reqs      integral                32    'd1  
#           num_last_rsps      integral                32    'd1  
#       sagt[1]                slave_agent             -     @1311
#         sdrvh                slave_driver            -     @1491
#           rsp_port           uvm_analysis_port       -     @1506
#           seq_item_port      uvm_seq_item_pull_port  -     @1498
#         smonh                slave_monitor           -     @1484
#         sseqrh               slave_sequencer         -     @1514
#           rsp_export         uvm_analysis_export     -     @1521
#           seq_item_export    uvm_seq_item_pull_imp   -     @1615
#           arbitration_queue  array                   0     -    
#           lock_queue         array                   0     -    
#           num_last_reqs      integral                32    'd1  
#           num_last_rsps      integral                32    'd1  
#       sagt[2]                slave_agent             -     @1319
#         sdrvh                slave_driver            -     @1639
#           rsp_port           uvm_analysis_port       -     @1654
#           seq_item_port      uvm_seq_item_pull_port  -     @1646
#         smonh                slave_monitor           -     @1632
#         sseqrh               slave_sequencer         -     @1662
#           rsp_export         uvm_analysis_export     -     @1669
#           seq_item_export    uvm_seq_item_pull_imp   -     @1763
#           arbitration_queue  array                   0     -    
#           lock_queue         array                   0     -    
#           num_last_reqs      integral                32    'd1  
#           num_last_rsps      integral                32    'd1  
#       sagt[3]                slave_agent             -     @1327
#         sdrvh                slave_driver            -     @1787
#           rsp_port           uvm_analysis_port       -     @1802
#           seq_item_port      uvm_seq_item_pull_port  -     @1794
#         smonh                slave_monitor           -     @1780
#         sseqrh               slave_sequencer         -     @1810
#           rsp_export         uvm_analysis_export     -     @1817
#           seq_item_export    uvm_seq_item_pull_imp   -     @1911
#           arbitration_queue  array                   0     -    
#           lock_queue         array                   0     -    
#           num_last_reqs      integral                32    'd1  
#           num_last_rsps      integral                32    'd1  
# ----------------------------------------------------------------
# 
# start of read_awaddr
# start of slave_addr
# start of read_awaddr
# start of slave_addr
# start of read_awaddr
# start of slave_addr
# start of read_awaddr
# start of slave_addr
# //////////////////////////////////////////////// write_addr////////////////
#  wr_addr=14482660 14482660 14482660 14482660 14482660 14482660 14482660 14482660 14482660 14482660 14482660 14482660 14482660 14482660
# //////////////////////////////////////////////// write_addr_AWADDR   ////////////////
#  AWADDR=14482660
# //////////////////////////////////////////////// read_addr////////////////
#  rd_addr=11869841 11869841 11869841 11869841 11869841 11869841 11869841 11869841 11869841 11869841 11869841 11869841 11869841
# //////////////////////////////////////////////// write_addr_ARADDR  ////////////////
#  ARADDR=11869841
# //////////////////////////////////////////////// write_addr////////////////
#  wr_addr=22152578 22152578 22152578 22152578 22152578 22152578 22152578 22152578 22152578 22152578 22152578 22152578 22152578 22152578 22152578
# //////////////////////////////////////////////// write_addr_AWADDR   ////////////////
#  AWADDR=22152578
# //////////////////////////////////////////////// read_addr////////////////
#  rd_addr=28033300 28033300 28033300 28033300 28033300 28033300 28033300 28033300 28033300 28033300 28033300 28033300 28033300
# //////////////////////////////////////////////// write_addr_ARADDR  ////////////////
#  ARADDR=28033300
# //////////////////////////////////////////////// write_addr////////////////
#  wr_addr=38987098 38987098 38987098 38987098 38987098 38987098 38987098 38987098 38987098 38987098 38987098 38987098 38987098
# //////////////////////////////////////////////// write_addr_AWADDR   ////////////////
#  AWADDR=38987098
# //////////////////////////////////////////////// read_addr////////////////
#  rd_addr=39380749 39380749 39380749 39380749 39380749 39380749 39380749 39380749 39380749 39380749 39380749 39380749
# //////////////////////////////////////////////// write_addr_ARADDR  ////////////////
#  ARADDR=39380749
# //////////////////////////////////////////////// write_addr////////////////
#  wr_addr=54054436 54054436 54054436 54054436 54054436 54054436 54054436 54054436 54054436
# //////////////////////////////////////////////// write_addr_AWADDR   ////////////////
#  AWADDR=54054436
# //////////////////////////////////////////////// read_addr////////////////
#  rd_addr=61929106 61929106 61929106 61929106 61929106 61929106 61929106 61929106 61929106 61929106 61929106 61929106 61929106
# //////////////////////////////////////////////// write_addr_ARADDR  ////////////////
#  ARADDR=61929106
# start of drive_awaddr
# start of drive_raddr
# start of drive_awaddr
# start of drive_raddr
# start of drive_awaddr
# start of drive_raddr
# start of drive_awaddr
# start of drive_raddr
# inside drive_raddr before wait ARREADY
# inside drive_raddr before wait ARREADY
# inside drive_raddr before wait ARREADY
# UVM_INFO ../master_agent_top/master_monitor.sv(104) @ 45000: uvm_test_top.envh.magt_top.magt[0].mmonh [master_monitor] Printing from waddr collect task -----------------------------------
# Name       Type      Size  Value   
# -----------------------------------
# xtn        axi_xtn   -     @2053   
#   AWID     integral  4     14      
#   AWADDR   integral  32    'hdcfce4
#   AWLEN    integral  4     13      
#   AWSIZE   integral  3     'd0     
#   AWBURST  integral  2     'd0     
#   WID      integral  4     'd0     
#   BID      integral  4     'd0     
#   BRESP    integral  2     'd0     
#   ARID     integral  4     'd0     
#   ARADDR   integral  32    'h0     
#   ARLEN    integral  8     'd0     
#   ARSIZE   integral  3     'd0     
#   ARBURST  integral  2     'd0     
#   RID      integral  4     'd0     
# -----------------------------------
# 
# inside drive_raddr before wait ARREADY
# ** Warning: (vsim-8630) Infinity results from division operation.
#    Time: 55 ns  Iteration: 4  Process: /axi_test_pkg::master_monitor::collect_data/#FORK#59_7feff1cb796 File: ../tb/axi_xtn.sv Line: 136
# UVM_INFO ../slave_agent_top/slave_monitor.sv(100) @ 65000: uvm_test_top.envh.sagt_top.sagt[0].smonh [slave_monitor] Printing from waddr collect task -----------------------------------
# Name       Type      Size  Value   
# -----------------------------------
# xtn        axi_xtn   -     @1999   
#   AWID     integral  4     'd0     
#   AWADDR   integral  32    'hdcfce4
#   AWLEN    integral  4     13      
#   AWSIZE   integral  3     'd0     
#   AWBURST  integral  2     'd0     
#   WID      integral  4     'd0     
#   BID      integral  4     'd0     
#   BRESP    integral  2     'd0     
#   ARID     integral  4     'd0     
#   ARADDR   integral  32    'h0     
#   ARLEN    integral  8     'd0     
#   ARSIZE   integral  3     'd0     
#   ARBURST  integral  2     'd0     
#   RID      integral  4     'd0     
# -----------------------------------
# 
# end of drive_awadrr
# UVM_INFO ../master_agent_top/master_driver.sv(46) @ 65000: uvm_test_top.envh.magt_top.magt[0].mdrvh [master_driver] Prinitng from driver ----------------------------------------------------------------------------------------------------
# Name                           Type      Size  Value                                                
# ----------------------------------------------------------------------------------------------------
# req                            axi_xtn   -     @2082                                                
#   begin_time                   time      64    0                                                    
#   depth                        int       32    'd2                                                  
#   parent sequence (name)       string    11    fixed_seq00                                          
#   parent sequence (full name)  string    53    uvm_test_top.envh.magt_top.magt[0].mseqrh.fixed_seq00
#   sequencer                    string    41    uvm_test_top.envh.magt_top.magt[0].mseqrh            
#   AWID                         integral  4     14                                                   
#   AWADDR                       integral  32    'hdcfce4                                             
#   AWLEN                        integral  4     13                                                   
#   AWSIZE                       integral  3     'd0                                                  
#   AWBURST                      integral  2     'd0                                                  
#   WID                          integral  4     14                                                   
#   WDATA                        integral  32    'hce4234f5                                           
#   WSTRB                        integral  4     'b1                                                  
#   WLAST                        integral  1     'dX                                                  
#   WDATA                        integral  32    'hfad03e5d                                           
#   WSTRB                        integral  4     'b1                                                  
#   WLAST                        integral  1     'dX                                                  
#   WDATA                        integral  32    'h5e60d310                                           
#   WSTRB                        integral  4     'b1                                                  
#   WLAST                        integral  1     'dX                                                  
#   WDATA                        integral  32    'h8bdad5de                                           
#   WSTRB                        integral  4     'b1                                                  
#   WLAST                        integral  1     'dX                                                  
#   WDATA                        integral  32    'h750a19dd                                           
#   WSTRB                        integral  4     'b1                                                  
#   WLAST                        integral  1     'dX                                                  
#   WDATA                        integral  32    'h3267fe2a                                           
#   WSTRB                        integral  4     'b1                                                  
#   WLAST                        integral  1     'dX                                                  
#   WDATA                        integral  32    'h36ca02b4                                           
#   WSTRB                        integral  4     'b1                                                  
#   WLAST                        integral  1     'dX                                                  
#   WDATA                        integral  32    'h6f4886c1                                           
#   WSTRB                        integral  4     'b1                                                  
#   WLAST                        integral  1     'dX                                                  
#   WDATA                        integral  32    'hc65ac9f5                                           
#   WSTRB                        integral  4     'b1                                                  
#   WLAST                        integral  1     'dX                                                  
#   WDATA                        integral  32    'h63a740cd                                           
#   WSTRB                        integral  4     'b1                                                  
#   WLAST                        integral  1     'dX                                                  
#   WDATA                        integral  32    'h409b1202                                           
#   WSTRB                        integral  4     'b1                                                  
#   WLAST                        integral  1     'dX                                                  
#   WDATA                        integral  32    'hb43e2684                                           
#   WSTRB                        integral  4     'b1                                                  
#   WLAST                        integral  1     'dX                                                  
#   WDATA                        integral  32    'h15fd823b                                           
#   WSTRB                        integral  4     'b1                                                  
#   WLAST                        integral  1     'dX                                                  
#   WDATA                        integral  32    'h127df62f                                           
#   WSTRB                        integral  4     'b1                                                  
#   WLAST                        integral  1     'dX                                                  
#   BID                          integral  4     14                                                   
#   BRESP                        integral  2     'd0                                                  
#   ARID                         integral  4     15                                                   
#   ARADDR                       integral  32    'hb51e91                                             
#   ARLEN                        integral  8     'd12                                                 
#   ARSIZE                       integral  3     'd0                                                  
#   ARBURST                      integral  2     'd0                                                  
#   RID                          integral  4     15                                                   
#   RDATA                        integral  32    'h6ccd5c9c                                           
#   RRESP                        integral  2     'd0                                                  
#   RDATA                        integral  32    'h90b2263a                                           
#   RRESP                        integral  2     'd0                                                  
#   RDATA                        integral  32    'h57a85854                                           
#   RRESP                        integral  2     'd0                                                  
#   RDATA                        integral  32    'h816e22b5                                           
#   RRESP                        integral  2     'd0                                                  
#   RDATA                        integral  32    'he3250b43                                           
#   RRESP                        integral  2     'd0                                                  
#   RDATA                        integral  32    'ha81a722d                                           
#   RRESP                        integral  2     'd0                                                  
#   RDATA                        integral  32    'h81ebc8bd                                           
#   RRESP                        integral  2     'd0                                                  
#   RDATA                        integral  32    'hea915322                                           
#   RRESP                        integral  2     'd0                                                  
#   RDATA                        integral  32    'h2882dd9d                                           
#   RRESP                        integral  2     'd0                                                  
#   RDATA                        integral  32    'h2966ac01                                           
#   RRESP                        integral  2     'd0                                                  
#   RDATA                        integral  32    'h9ade6f7d                                           
#   RRESP                        integral  2     'd0                                                  
#   RDATA                        integral  32    'hef7bd39e                                           
#   RRESP                        integral  2     'd0                                                  
#   RDATA                        integral  32    'he7a4da92                                           
#   RRESP                        integral  2     'd0                                                  
# ----------------------------------------------------------------------------------------------------
# 
# start ofdrive_wdata
# ** Warning: (vsim-8630) Infinity results from division operation.
#    Time: 75 ns  Iteration: 3  Process: /axi_test_pkg::slave_monitor::collect_data/#FORK#55_7feff1c9859 File: ../tb/axi_xtn.sv Line: 136
# end of read_awaddr
# start of read_awaddr
# UVM_INFO ../master_agent_top/master_monitor.sv(156) @ 95000: uvm_test_top.envh.magt_top.magt[0].mmonh [master_monitor] Printing from wdata collect task --------------------------------
# Name       Type      Size  Value
# --------------------------------
# xtn        axi_xtn   -     @2314
#   AWID     integral  4     'd0  
#   AWADDR   integral  32    'h0  
#   AWLEN    integral  4     'd0  
#   AWSIZE   integral  3     'd0  
#   AWBURST  integral  2     'd0  
#   WID      integral  4     14   
#   WDATA    integral  32    'hf5 
#   WSTRB    integral  4     'b1  
#   WLAST    integral  1     'd0  
#   BID      integral  4     'd0  
#   BRESP    integral  2     'd0  
#   ARID     integral  4     'd0  
#   ARADDR   integral  32    'h0  
#   ARLEN    integral  8     'd0  
#   ARSIZE   integral  3     'd0  
#   ARBURST  integral  2     'd0  
#   RID      integral  4     'd0  
# --------------------------------
# 
# start of read_data
# ** Warning: (vsim-8630) Infinity results from division operation.
#    Time: 95 ns  Iteration: 3  Process: /axi_test_pkg::slave_driver::drive/#FORK#58_7feff1c9810 File: ../tb/axi_xtn.sv Line: 136
# aligned:dcfce4
# address calculated in slave side '{14482660, 14482660, 14482660, 14482660, 14482660, 14482660, 14482660, 14482660, 14482660, 14482660, 14482660, 14482660, 14482660, 14482660}
# slave driver start of awvalid
# WSTRB in slave driver is:1
# value inside mem is: 245
# UVM_INFO ../slave_agent_top/slave_monitor.sv(152) @ 115000: uvm_test_top.envh.sagt_top.sagt[0].smonh [slave_monitor] Printing from wdata collect task --------------------------------
# Name       Type      Size  Value
# --------------------------------
# xtn        axi_xtn   -     @2323
#   AWID     integral  4     'd0  
#   AWADDR   integral  32    'h0  
#   AWLEN    integral  4     'd0  
#   AWSIZE   integral  3     'd0  
#   AWBURST  integral  2     'd0  
#   WID      integral  4     'd0  
#   WDATA    integral  32    'hf5 
#   WSTRB    integral  4     'b1  
#   WLAST    integral  1     'd0  
#   BID      integral  4     'd0  
#   BRESP    integral  2     'd0  
#   ARID     integral  4     'd0  
#   ARADDR   integral  32    'h0  
#   ARLEN    integral  8     'd0  
#   ARSIZE   integral  3     'd0  
#   ARBURST  integral  2     'd0  
#   RID      integral  4     'd0  
# --------------------------------
# 
# slave driver start of awvalid
# WSTRB in slave driver is:1
# value inside mem is: 93
# slave driver start of awvalid
# WSTRB in slave driver is:1
# value inside mem is: 16
# slave driver start of awvalid
# WSTRB in slave driver is:1
# value inside mem is: 222
# slave driver start of awvalid
# WSTRB in slave driver is:1
# value inside mem is: 221
# slave driver start of awvalid
# WSTRB in slave driver is:1
# value inside mem is: 42
# slave driver start of awvalid
# WSTRB in slave driver is:1
# value inside mem is: 180
# slave driver start of awvalid
# WSTRB in slave driver is:1
# value inside mem is: 193
# slave driver start of awvalid
# WSTRB in slave driver is:1
# value inside mem is: 245
# slave driver start of awvalid
# WSTRB in slave driver is:1
# value inside mem is: 205
# slave driver start of awvalid
# WSTRB in slave driver is:1
# value inside mem is: 2
# slave driver start of awvalid
# WSTRB in slave driver is:1
# value inside mem is: 132
# slave driver start of awvalid
# WSTRB in slave driver is:1
# value inside mem is: 59
# slave driver start of awvalid
# WSTRB in slave driver is:1
# value inside mem is: 47
# memory is '{14482660:47 }
# end of read_data
# start of driver_wresp
# BID sent is  0
# UVM_INFO ../slave_agent_top/slave_monitor.sv(161) @ 685000: uvm_test_top.envh.sagt_top.sagt[0].smonh [slave_monitor] Printing from wresponse collect task --------------------------------
# Name       Type      Size  Value
# --------------------------------
# xtn3       axi_xtn   -     @2007
#   AWID     integral  4     'd0  
#   AWADDR   integral  32    'h0  
#   AWLEN    integral  4     'd0  
#   AWSIZE   integral  3     'd0  
#   AWBURST  integral  2     'd0  
#   WID      integral  4     'd0  
#   BID      integral  4     'd0  
#   BRESP    integral  2     'd0  
#   ARID     integral  4     'd0  
#   ARADDR   integral  32    'h0  
#   ARLEN    integral  8     'd0  
#   ARSIZE   integral  3     'd0  
#   ARBURST  integral  2     'd0  
#   RID      integral  4     'd0  
# --------------------------------
# 
# UVM_INFO ../slave_agent_top/slave_monitor.sv(161) @ 685000: uvm_test_top.envh.sagt_top.sagt[0].smonh [slave_monitor] Printing from wresponse collect task --------------------------------
# Name       Type      Size  Value
# --------------------------------
# xtn3       axi_xtn   -     @2007
#   AWID     integral  4     'd0  
#   AWADDR   integral  32    'h0  
#   AWLEN    integral  4     'd0  
#   AWSIZE   integral  3     'd0  
#   AWBURST  integral  2     'd0  
#   WID      integral  4     'd0  
#   BID      integral  4     'd0  
#   BRESP    integral  2     'd0  
#   ARID     integral  4     'd0  
#   ARADDR   integral  32    'h0  
#   ARLEN    integral  8     'd0  
#   ARSIZE   integral  3     'd0  
#   ARBURST  integral  2     'd0  
#   RID      integral  4     'd0  
# --------------------------------
# 
# end of drive_wdata
# start ofdrive_bresp
# UVM_INFO ../master_agent_top/master_monitor.sv(165) @ 725000: uvm_test_top.envh.magt_top.magt[0].mmonh [master_monitor] Printing from wresponse collect task --------------------------------
# Name       Type      Size  Value
# --------------------------------
# xtn3       axi_xtn   -     @2057
#   AWID     integral  4     'd0  
#   AWADDR   integral  32    'h0  
#   AWLEN    integral  4     'd0  
#   AWSIZE   integral  3     'd0  
#   AWBURST  integral  2     'd0  
#   WID      integral  4     'd0  
#   BID      integral  4     'd0  
#   BRESP    integral  2     'd0  
#   ARID     integral  4     'd0  
#   ARADDR   integral  32    'h0  
#   ARLEN    integral  8     'd0  
#   ARSIZE   integral  3     'd0  
#   ARBURST  integral  2     'd0  
#   RID      integral  4     'd0  
# --------------------------------
# 
# end of drive_wresp
# end of drive_bresp
# UVM_INFO ../master_agent_top/master_monitor.sv(182) @ 745000: uvm_test_top.envh.magt_top.magt[0].mmonh [master_monitor] Printing from waddr collect task -----------------------------------
# Name       Type      Size  Value   
# -----------------------------------
# xtn3       axi_xtn   -     @2057   
#   AWID     integral  4     'd0     
#   AWADDR   integral  32    'h0     
#   AWLEN    integral  4     'd0     
#   AWSIZE   integral  3     'd0     
#   AWBURST  integral  2     'd0     
#   WID      integral  4     'd0     
#   BID      integral  4     'd0     
#   BRESP    integral  2     'd0     
#   ARID     integral  4     15      
#   ARADDR   integral  32    'hb51e91
#   ARLEN    integral  8     'd12    
#   ARSIZE   integral  3     'd0     
#   ARBURST  integral  2     'd0     
#   RID      integral  4     'd0     
# -----------------------------------
# 
# ** Warning: (vsim-8630) Infinity results from division operation.
#    Time: 755 ns  Iteration: 4  Process: /axi_test_pkg::master_monitor::collect_data/#FORK#82_7feff1cb9ee File: ../tb/axi_xtn.sv Line: 203
# UVM_INFO ../slave_agent_top/slave_monitor.sv(178) @ 765000: uvm_test_top.envh.sagt_top.sagt[0].smonh [slave_monitor] Printing from waddr collect task -----------------------------------
# Name       Type      Size  Value   
# -----------------------------------
# xtn3       axi_xtn   -     @2007   
#   AWID     integral  4     'd0     
#   AWADDR   integral  32    'h0     
#   AWLEN    integral  4     'd0     
#   AWSIZE   integral  3     'd0     
#   AWBURST  integral  2     'd0     
#   WID      integral  4     'd0     
#   BID      integral  4     'd0     
#   BRESP    integral  2     'd0     
#   ARID     integral  4     'd0     
#   ARADDR   integral  32    'hb51e91
#   ARLEN    integral  8     'd12    
#   ARSIZE   integral  3     'd0     
#   ARBURST  integral  2     'd0     
#   RID      integral  4     'd0     
# -----------------------------------
# 
# end of slave_addr
# start of slave_addr
# start of slave_rdata
# ** Warning: (vsim-8630) Infinity results from division operation.
#    Time: 775 ns  Iteration: 3  Process: /axi_test_pkg::slave_monitor::collect_data/#FORK#77_7feff1c9884 File: ../tb/axi_xtn.sv Line: 203
# UVM_INFO ../slave_agent_top/slave_monitor.sv(203) @ 785000: uvm_test_top.envh.sagt_top.sagt[0].smonh [slave_monitor] Printing from wdata collect task -------------------------------------
# Name       Type      Size  Value     
# -------------------------------------
# xtn3       axi_xtn   -     @2007     
#   AWID     integral  4     'd0       
#   AWADDR   integral  32    'h0       
#   AWLEN    integral  4     'd0       
#   AWSIZE   integral  3     'd0       
#   AWBURST  integral  2     'd0       
#   WID      integral  4     'd0       
#   BID      integral  4     'd0       
#   BRESP    integral  2     'd0       
#   ARID     integral  4     'd0       
#   ARADDR   integral  32    'hb51e91  
#   ARLEN    integral  8     'd12      
#   ARSIZE   integral  3     'd0       
#   ARBURST  integral  2     'd0       
#   RID      integral  4     'd0       
#   RDATA    integral  32    'h7724813a
#   RRESP    integral  2     'd0       
#   RDATA    integral  32    'h7724813a
#   RRESP    integral  2     'd0       
#   RDATA    integral  32    'h7724813a
#   RRESP    integral  2     'd0       
#   RDATA    integral  32    'h7724813a
#   RRESP    integral  2     'd0       
#   RDATA    integral  32    'h7724813a
#   RRESP    integral  2     'd0       
#   RDATA    integral  32    'h7724813a
#   RRESP    integral  2     'd0       
#   RDATA    integral  32    'h7724813a
#   RRESP    integral  2     'd0       
#   RDATA    integral  32    'h7724813a
#   RRESP    integral  2     'd0       
#   RDATA    integral  32    'h7724813a
#   RRESP    integral  2     'd0       
#   RDATA    integral  32    'h7724813a
#   RRESP    integral  2     'd0       
#   RDATA    integral  32    'h7724813a
#   RRESP    integral  2     'd0       
#   RDATA    integral  32    'h7724813a
#   RRESP    integral  2     'd0       
#   RDATA    integral  32    'h7724813a
#   RRESP    integral  2     'd0       
# -------------------------------------
# 
# end of drive_raddr
# start of drive_rdata
# UVM_INFO ../master_agent_top/master_monitor.sv(207) @ 805000: uvm_test_top.envh.magt_top.magt[0].mmonh [master_monitor] Printing from wdata collect task -------------------------------------
# Name       Type      Size  Value     
# -------------------------------------
# xtn3       axi_xtn   -     @2057     
#   AWID     integral  4     'd0       
#   AWADDR   integral  32    'h0       
#   AWLEN    integral  4     'd0       
#   AWSIZE   integral  3     'd0       
#   AWBURST  integral  2     'd0       
#   WID      integral  4     'd0       
#   BID      integral  4     'd0       
#   BRESP    integral  2     'd0       
#   ARID     integral  4     15        
#   ARADDR   integral  32    'hb51e91  
#   ARLEN    integral  8     'd12      
#   ARSIZE   integral  3     'd0       
#   ARBURST  integral  2     'd0       
#   RID      integral  4     15        
#   RDATA    integral  32    'h7724813a
#   RRESP    integral  2     'd0       
#   RDATA    integral  32    'h7724813a
#   RRESP    integral  2     'd0       
#   RDATA    integral  32    'h7724813a
#   RRESP    integral  2     'd0       
#   RDATA    integral  32    'h7724813a
#   RRESP    integral  2     'd0       
#   RDATA    integral  32    'h7724813a
#   RRESP    integral  2     'd0       
#   RDATA    integral  32    'h7724813a
#   RRESP    integral  2     'd0       
#   RDATA    integral  32    'h7724813a
#   RRESP    integral  2     'd0       
#   RDATA    integral  32    'h7724813a
#   RRESP    integral  2     'd0       
#   RDATA    integral  32    'h7724813a
#   RRESP    integral  2     'd0       
#   RDATA    integral  32    'h7724813a
#   RRESP    integral  2     'd0       
#   RDATA    integral  32    'h7724813a
#   RRESP    integral  2     'd0       
#   RDATA    integral  32    'h7724813a
#   RRESP    integral  2     'd0       
#   RDATA    integral  32    'h7724813a
#   RRESP    integral  2     'd0       
# -------------------------------------
# 
# end of slave_rdata
# UVM_INFO ../master_agent_top/master_monitor.sv(104) @ 1365000: uvm_test_top.envh.magt_top.magt[1].mmonh [master_monitor] Printing from waddr collect task ------------------------------------
# Name       Type      Size  Value    
# ------------------------------------
# xtn        axi_xtn   -     @2043    
#   AWID     integral  4     12       
#   AWADDR   integral  32    'h1520582
#   AWLEN    integral  4     14       
#   AWSIZE   integral  3     'd1      
#   AWBURST  integral  2     'd0      
#   WID      integral  4     'd0      
#   BID      integral  4     'd0      
#   BRESP    integral  2     'd0      
#   ARID     integral  4     'd0      
#   ARADDR   integral  32    'h0      
#   ARLEN    integral  8     'd0      
#   ARSIZE   integral  3     'd0      
#   ARBURST  integral  2     'd0      
#   RID      integral  4     'd0      
# ------------------------------------
# 
# ** Warning: (vsim-8630) Infinity results from division operation.
#    Time: 1375 ns  Iteration: 4  Process: /axi_test_pkg::master_monitor::collect_data/#FORK#59_7feff1c9df1 File: ../tb/axi_xtn.sv Line: 136
# UVM_INFO ../slave_agent_top/slave_monitor.sv(100) @ 1385000: uvm_test_top.envh.sagt_top.sagt[1].smonh [slave_monitor] Printing from waddr collect task ------------------------------------
# Name       Type      Size  Value    
# ------------------------------------
# xtn        axi_xtn   -     @1977    
#   AWID     integral  4     'd0      
#   AWADDR   integral  32    'h1520582
#   AWLEN    integral  4     14       
#   AWSIZE   integral  3     'd1      
#   AWBURST  integral  2     'd0      
#   WID      integral  4     'd0      
#   BID      integral  4     'd0      
#   BRESP    integral  2     'd0      
#   ARID     integral  4     'd0      
#   ARADDR   integral  32    'h0      
#   ARLEN    integral  8     'd0      
#   ARSIZE   integral  3     'd0      
#   ARBURST  integral  2     'd0      
#   RID      integral  4     'd0      
# ------------------------------------
# 
# end of drive_awadrr
# UVM_INFO ../master_agent_top/master_driver.sv(46) @ 1385000: uvm_test_top.envh.magt_top.magt[1].mdrvh [master_driver] Prinitng from driver ----------------------------------------------------------------------------------------------------
# Name                           Type      Size  Value                                                
# ----------------------------------------------------------------------------------------------------
# req                            axi_xtn   -     @2086                                                
#   begin_time                   time      64    0                                                    
#   depth                        int       32    'd2                                                  
#   parent sequence (name)       string    11    fixed_seq01                                          
#   parent sequence (full name)  string    53    uvm_test_top.envh.magt_top.magt[1].mseqrh.fixed_seq01
#   sequencer                    string    41    uvm_test_top.envh.magt_top.magt[1].mseqrh            
#   AWID                         integral  4     12                                                   
#   AWADDR                       integral  32    'h1520582                                            
#   AWLEN                        integral  4     14                                                   
#   AWSIZE                       integral  3     'd1                                                  
#   AWBURST                      integral  2     'd0                                                  
#   WID                          integral  4     12                                                   
#   WDATA                        integral  32    'he05bc6b9                                           
#   WSTRB                        integral  4     'b1100                                               
#   WLAST                        integral  1     'dX                                                  
#   WDATA                        integral  32    'hf1064712                                           
#   WSTRB                        integral  4     'b1100                                               
#   WLAST                        integral  1     'dX                                                  
#   WDATA                        integral  32    'h45f94ab                                            
#   WSTRB                        integral  4     'b1100                                               
#   WLAST                        integral  1     'dX                                                  
#   WDATA                        integral  32    'h485bbbe0                                           
#   WSTRB                        integral  4     'b1100                                               
#   WLAST                        integral  1     'dX                                                  
#   WDATA                        integral  32    'h765de22e                                           
#   WSTRB                        integral  4     'b1100                                               
#   WLAST                        integral  1     'dX                                                  
#   WDATA                        integral  32    'hc9145017                                           
#   WSTRB                        integral  4     'b1100                                               
#   WLAST                        integral  1     'dX                                                  
#   WDATA                        integral  32    'h3571b50                                            
#   WSTRB                        integral  4     'b1100                                               
#   WLAST                        integral  1     'dX                                                  
#   WDATA                        integral  32    'ha2aa5fb                                            
#   WSTRB                        integral  4     'b1100                                               
#   WLAST                        integral  1     'dX                                                  
#   WDATA                        integral  32    'h2666b582                                           
#   WSTRB                        integral  4     'b1100                                               
#   WLAST                        integral  1     'dX                                                  
#   WDATA                        integral  32    'h7a7a66e3                                           
#   WSTRB                        integral  4     'b1100                                               
#   WLAST                        integral  1     'dX                                                  
#   WDATA                        integral  32    'h812ee156                                           
#   WSTRB                        integral  4     'b1100                                               
#   WLAST                        integral  1     'dX                                                  
#   WDATA                        integral  32    'he8cb7824                                           
#   WSTRB                        integral  4     'b1100                                               
#   WLAST                        integral  1     'dX                                                  
#   WDATA                        integral  32    'h3f718f63                                           
#   WSTRB                        integral  4     'b1100                                               
#   WLAST                        integral  1     'dX                                                  
#   WDATA                        integral  32    'hda37fb9d                                           
#   WSTRB                        integral  4     'b1100                                               
#   WLAST                        integral  1     'dX                                                  
#   WDATA                        integral  32    'hd5e5b100                                           
#   WSTRB                        integral  4     'b1100                                               
#   WLAST                        integral  1     'dX                                                  
#   BID                          integral  4     12                                                   
#   BRESP                        integral  2     'd0                                                  
#   ARID                         integral  4     12                                                   
#   ARADDR                       integral  32    'h1abc114                                            
#   ARLEN                        integral  8     'd12                                                 
#   ARSIZE                       integral  3     'd2                                                  
#   ARBURST                      integral  2     'd0                                                  
#   RID                          integral  4     12                                                   
#   RDATA                        integral  32    'h41ae758                                            
#   RRESP                        integral  2     'd0                                                  
#   RDATA                        integral  32    'h78bb0f39                                           
#   RRESP                        integral  2     'd0                                                  
#   RDATA                        integral  32    'h7f3656b0                                           
#   RRESP                        integral  2     'd0                                                  
#   RDATA                        integral  32    'h4cb0dc8                                            
#   RRESP                        integral  2     'd0                                                  
#   RDATA                        integral  32    'h6d3e9a23                                           
#   RRESP                        integral  2     'd0                                                  
#   RDATA                        integral  32    'h7dcfed56                                           
#   RRESP                        integral  2     'd0                                                  
#   RDATA                        integral  32    'h18968eb8                                           
#   RRESP                        integral  2     'd0                                                  
#   RDATA                        integral  32    'hbe80f3aa                                           
#   RRESP                        integral  2     'd0                                                  
#   RDATA                        integral  32    'hd8b6ef33                                           
#   RRESP                        integral  2     'd0                                                  
#   RDATA                        integral  32    'ha9d551e6                                           
#   RRESP                        integral  2     'd0                                                  
#   RDATA                        integral  32    'h6e411991                                           
#   RRESP                        integral  2     'd0                                                  
#   RDATA                        integral  32    'h72c892e                                            
#   RRESP                        integral  2     'd0                                                  
#   RDATA                        integral  32    'hc12baee5                                           
#   RRESP                        integral  2     'd0                                                  
# ----------------------------------------------------------------------------------------------------
# 
# start ofdrive_wdata
# end of drive_rdata
# ** Warning: (vsim-8630) Infinity results from division operation.
#    Time: 1395 ns  Iteration: 3  Process: /axi_test_pkg::slave_monitor::collect_data/#FORK#55_7feff49dc74 File: ../tb/axi_xtn.sv Line: 136
# end of read_awaddr
# start of read_awaddr
# UVM_INFO ../master_agent_top/master_monitor.sv(156) @ 1415000: uvm_test_top.envh.magt_top.magt[1].mmonh [master_monitor] Printing from wdata collect task ---------------------------------
# Name       Type      Size  Value 
# ---------------------------------
# xtn        axi_xtn   -     @2367 
#   AWID     integral  4     'd0   
#   AWADDR   integral  32    'h0   
#   AWLEN    integral  4     'd0   
#   AWSIZE   integral  3     'd0   
#   AWBURST  integral  2     'd0   
#   WID      integral  4     12    
#   WDATA    integral  32    'he05b
#   WSTRB    integral  4     'b1100
#   WLAST    integral  1     'd0   
#   BID      integral  4     'd0   
#   BRESP    integral  2     'd0   
#   ARID     integral  4     'd0   
#   ARADDR   integral  32    'h0   
#   ARLEN    integral  8     'd0   
#   ARSIZE   integral  3     'd0   
#   ARBURST  integral  2     'd0   
#   RID      integral  4     'd0   
# ---------------------------------
# 
# start of read_data
# ** Warning: (vsim-8630) Infinity results from division operation.
#    Time: 1415 ns  Iteration: 3  Process: /axi_test_pkg::slave_driver::drive/#FORK#58_7feff49dcd1 File: ../tb/axi_xtn.sv Line: 136
# aligned:1520582
# address calculated in slave side '{22152578, 22152578, 22152578, 22152578, 22152578, 22152578, 22152578, 22152578, 22152578, 22152578, 22152578, 22152578, 22152578, 22152578, 22152578}
# slave driver start of awvalid
# WSTRB in slave driver is:12
# value inside mem is: 57435
# UVM_INFO ../slave_agent_top/slave_monitor.sv(152) @ 1435000: uvm_test_top.envh.sagt_top.sagt[1].smonh [slave_monitor] Printing from wdata collect task ---------------------------------
# Name       Type      Size  Value 
# ---------------------------------
# xtn        axi_xtn   -     @2376 
#   AWID     integral  4     'd0   
#   AWADDR   integral  32    'h0   
#   AWLEN    integral  4     'd0   
#   AWSIZE   integral  3     'd0   
#   AWBURST  integral  2     'd0   
#   WID      integral  4     'd0   
#   WDATA    integral  32    'he05b
#   WSTRB    integral  4     'b1100
#   WLAST    integral  1     'd0   
#   BID      integral  4     'd0   
#   BRESP    integral  2     'd0   
#   ARID     integral  4     'd0   
#   ARADDR   integral  32    'h0   
#   ARLEN    integral  8     'd0   
#   ARSIZE   integral  3     'd0   
#   ARBURST  integral  2     'd0   
#   RID      integral  4     'd0   
# ---------------------------------
# 
# slave driver start of awvalid
# WSTRB in slave driver is:12
# value inside mem is: 61702
# slave driver start of awvalid
# WSTRB in slave driver is:12
# value inside mem is: 1119
# slave driver start of awvalid
# WSTRB in slave driver is:12
# value inside mem is: 18523
# slave driver start of awvalid
# WSTRB in slave driver is:12
# value inside mem is: 30301
# slave driver start of awvalid
# WSTRB in slave driver is:12
# value inside mem is: 51476
# slave driver start of awvalid
# WSTRB in slave driver is:12
# value inside mem is: 855
# slave driver start of awvalid
# WSTRB in slave driver is:12
# value inside mem is: 2602
# slave driver start of awvalid
# WSTRB in slave driver is:12
# value inside mem is: 9830
# slave driver start of awvalid
# WSTRB in slave driver is:12
# value inside mem is: 31354
# slave driver start of awvalid
# WSTRB in slave driver is:12
# value inside mem is: 33070
# slave driver start of awvalid
# WSTRB in slave driver is:12
# value inside mem is: 59595
# slave driver start of awvalid
# WSTRB in slave driver is:12
# value inside mem is: 16241
# slave driver start of awvalid
# WSTRB in slave driver is:12
# value inside mem is: 55863
# slave driver start of awvalid
# WSTRB in slave driver is:12
# value inside mem is: 54757
# memory is '{22152578:54757 }
# end of read_data
# end of drive_wdata
# start of driver_wresp
# BID sent is  0
# start ofdrive_bresp
# UVM_INFO ../slave_agent_top/slave_monitor.sv(161) @ 2005000: uvm_test_top.envh.sagt_top.sagt[1].smonh [slave_monitor] Printing from wresponse collect task --------------------------------
# Name       Type      Size  Value
# --------------------------------
# xtn3       axi_xtn   -     @1985
#   AWID     integral  4     'd0  
#   AWADDR   integral  32    'h0  
#   AWLEN    integral  4     'd0  
#   AWSIZE   integral  3     'd0  
#   AWBURST  integral  2     'd0  
#   WID      integral  4     'd0  
#   BID      integral  4     'd0  
#   BRESP    integral  2     'd0  
#   ARID     integral  4     'd0  
#   ARADDR   integral  32    'h0  
#   ARLEN    integral  8     'd0  
#   ARSIZE   integral  3     'd0  
#   ARBURST  integral  2     'd0  
#   RID      integral  4     'd0  
# --------------------------------
# 
# UVM_INFO ../slave_agent_top/slave_monitor.sv(161) @ 2005000: uvm_test_top.envh.sagt_top.sagt[1].smonh [slave_monitor] Printing from wresponse collect task --------------------------------
# Name       Type      Size  Value
# --------------------------------
# xtn3       axi_xtn   -     @1985
#   AWID     integral  4     'd0  
#   AWADDR   integral  32    'h0  
#   AWLEN    integral  4     'd0  
#   AWSIZE   integral  3     'd0  
#   AWBURST  integral  2     'd0  
#   WID      integral  4     'd0  
#   BID      integral  4     'd0  
#   BRESP    integral  2     'd0  
#   ARID     integral  4     'd0  
#   ARADDR   integral  32    'h0  
#   ARLEN    integral  8     'd0  
#   ARSIZE   integral  3     'd0  
#   ARBURST  integral  2     'd0  
#   RID      integral  4     'd0  
# --------------------------------
# 
# UVM_INFO ../master_agent_top/master_monitor.sv(165) @ 2015000: uvm_test_top.envh.magt_top.magt[1].mmonh [master_monitor] Printing from wresponse collect task --------------------------------
# Name       Type      Size  Value
# --------------------------------
# xtn3       axi_xtn   -     @2047
#   AWID     integral  4     'd0  
#   AWADDR   integral  32    'h0  
#   AWLEN    integral  4     'd0  
#   AWSIZE   integral  3     'd0  
#   AWBURST  integral  2     'd0  
#   WID      integral  4     'd0  
#   BID      integral  4     'd0  
#   BRESP    integral  2     'd0  
#   ARID     integral  4     'd0  
#   ARADDR   integral  32    'h0  
#   ARLEN    integral  8     'd0  
#   ARSIZE   integral  3     'd0  
#   ARBURST  integral  2     'd0  
#   RID      integral  4     'd0  
# --------------------------------
# 
# end of drive_bresp
# UVM_INFO ../master_agent_top/master_monitor.sv(182) @ 2035000: uvm_test_top.envh.magt_top.magt[1].mmonh [master_monitor] Printing from waddr collect task ------------------------------------
# Name       Type      Size  Value    
# ------------------------------------
# xtn3       axi_xtn   -     @2047    
#   AWID     integral  4     'd0      
#   AWADDR   integral  32    'h0      
#   AWLEN    integral  4     'd0      
#   AWSIZE   integral  3     'd0      
#   AWBURST  integral  2     'd0      
#   WID      integral  4     'd0      
#   BID      integral  4     'd0      
#   BRESP    integral  2     'd0      
#   ARID     integral  4     12       
#   ARADDR   integral  32    'h1abc114
#   ARLEN    integral  8     'd12     
#   ARSIZE   integral  3     'd2      
#   ARBURST  integral  2     'd0      
#   RID      integral  4     'd0      
# ------------------------------------
# 
# end of drive_wresp
# ** Warning: (vsim-8630) Infinity results from division operation.
#    Time: 2045 ns  Iteration: 4  Process: /axi_test_pkg::master_monitor::collect_data/#FORK#82_7feff1c9e55 File: ../tb/axi_xtn.sv Line: 203
# UVM_INFO ../slave_agent_top/slave_monitor.sv(178) @ 2055000: uvm_test_top.envh.sagt_top.sagt[1].smonh [slave_monitor] Printing from waddr collect task ------------------------------------
# Name       Type      Size  Value    
# ------------------------------------
# xtn3       axi_xtn   -     @1985    
#   AWID     integral  4     'd0      
#   AWADDR   integral  32    'h0      
#   AWLEN    integral  4     'd0      
#   AWSIZE   integral  3     'd0      
#   AWBURST  integral  2     'd0      
#   WID      integral  4     'd0      
#   BID      integral  4     'd0      
#   BRESP    integral  2     'd0      
#   ARID     integral  4     'd0      
#   ARADDR   integral  32    'h1abc114
#   ARLEN    integral  8     'd12     
#   ARSIZE   integral  3     'd2      
#   ARBURST  integral  2     'd0      
#   RID      integral  4     'd0      
# ------------------------------------
# 
# ** Warning: (vsim-8630) Infinity results from division operation.
#    Time: 2065 ns  Iteration: 3  Process: /axi_test_pkg::slave_monitor::collect_data/#FORK#77_7feff04b79e File: ../tb/axi_xtn.sv Line: 203
# end of slave_addr
# end of drive_raddr
# start of slave_addr
# start of slave_rdata
# start of drive_rdata
# UVM_INFO ../slave_agent_top/slave_monitor.sv(203) @ 2085000: uvm_test_top.envh.sagt_top.sagt[1].smonh [slave_monitor] Printing from wdata collect task -------------------------------------
# Name       Type      Size  Value     
# -------------------------------------
# xtn3       axi_xtn   -     @1985     
#   AWID     integral  4     'd0       
#   AWADDR   integral  32    'h0       
#   AWLEN    integral  4     'd0       
#   AWSIZE   integral  3     'd0       
#   AWBURST  integral  2     'd0       
#   WID      integral  4     'd0       
#   BID      integral  4     'd0       
#   BRESP    integral  2     'd0       
#   ARID     integral  4     'd0       
#   ARADDR   integral  32    'h1abc114 
#   ARLEN    integral  8     'd12      
#   ARSIZE   integral  3     'd2       
#   ARBURST  integral  2     'd0       
#   RID      integral  4     'd0       
#   RDATA    integral  32    'h413b2b1c
#   RRESP    integral  2     'd0       
#   RDATA    integral  32    'h413b2b1c
#   RRESP    integral  2     'd0       
#   RDATA    integral  32    'h413b2b1c
#   RRESP    integral  2     'd0       
#   RDATA    integral  32    'h413b2b1c
#   RRESP    integral  2     'd0       
#   RDATA    integral  32    'h413b2b1c
#   RRESP    integral  2     'd0       
#   RDATA    integral  32    'h413b2b1c
#   RRESP    integral  2     'd0       
#   RDATA    integral  32    'h413b2b1c
#   RRESP    integral  2     'd0       
#   RDATA    integral  32    'h413b2b1c
#   RRESP    integral  2     'd0       
#   RDATA    integral  32    'h413b2b1c
#   RRESP    integral  2     'd0       
#   RDATA    integral  32    'h413b2b1c
#   RRESP    integral  2     'd0       
#   RDATA    integral  32    'h413b2b1c
#   RRESP    integral  2     'd0       
#   RDATA    integral  32    'h413b2b1c
#   RRESP    integral  2     'd0       
#   RDATA    integral  32    'h413b2b1c
#   RRESP    integral  2     'd0       
# -------------------------------------
# 
# UVM_INFO ../master_agent_top/master_monitor.sv(207) @ 2095000: uvm_test_top.envh.magt_top.magt[1].mmonh [master_monitor] Printing from wdata collect task -------------------------------------
# Name       Type      Size  Value     
# -------------------------------------
# xtn3       axi_xtn   -     @2047     
#   AWID     integral  4     'd0       
#   AWADDR   integral  32    'h0       
#   AWLEN    integral  4     'd0       
#   AWSIZE   integral  3     'd0       
#   AWBURST  integral  2     'd0       
#   WID      integral  4     'd0       
#   BID      integral  4     'd0       
#   BRESP    integral  2     'd0       
#   ARID     integral  4     12        
#   ARADDR   integral  32    'h1abc114 
#   ARLEN    integral  8     'd12      
#   ARSIZE   integral  3     'd2       
#   ARBURST  integral  2     'd0       
#   RID      integral  4     12        
#   RDATA    integral  32    'h413b2b1c
#   RRESP    integral  2     'd0       
#   RDATA    integral  32    'h413b2b1c
#   RRESP    integral  2     'd0       
#   RDATA    integral  32    'h413b2b1c
#   RRESP    integral  2     'd0       
#   RDATA    integral  32    'h413b2b1c
#   RRESP    integral  2     'd0       
#   RDATA    integral  32    'h413b2b1c
#   RRESP    integral  2     'd0       
#   RDATA    integral  32    'h413b2b1c
#   RRESP    integral  2     'd0       
#   RDATA    integral  32    'h413b2b1c
#   RRESP    integral  2     'd0       
#   RDATA    integral  32    'h413b2b1c
#   RRESP    integral  2     'd0       
#   RDATA    integral  32    'h413b2b1c
#   RRESP    integral  2     'd0       
#   RDATA    integral  32    'h413b2b1c
#   RRESP    integral  2     'd0       
#   RDATA    integral  32    'h413b2b1c
#   RRESP    integral  2     'd0       
#   RDATA    integral  32    'h413b2b1c
#   RRESP    integral  2     'd0       
#   RDATA    integral  32    'h413b2b1c
#   RRESP    integral  2     'd0       
# -------------------------------------
# 
# end of slave_rdata
# end of drive_rdata
# UVM_INFO ../master_agent_top/master_monitor.sv(104) @ 2565000: uvm_test_top.envh.magt_top.magt[2].mmonh [master_monitor] Printing from waddr collect task ------------------------------------
# Name       Type      Size  Value    
# ------------------------------------
# xtn        axi_xtn   -     @2033    
#   AWID     integral  4     9        
#   AWADDR   integral  32    'h252e55a
#   AWLEN    integral  4     12       
#   AWSIZE   integral  3     'd1      
#   AWBURST  integral  2     'd0      
#   WID      integral  4     'd0      
#   BID      integral  4     'd0      
#   BRESP    integral  2     'd0      
#   ARID     integral  4     'd0      
#   ARADDR   integral  32    'h0      
#   ARLEN    integral  8     'd0      
#   ARSIZE   integral  3     'd0      
#   ARBURST  integral  2     'd0      
#   RID      integral  4     'd0      
# ------------------------------------
# 
# ** Warning: (vsim-8630) Infinity results from division operation.
#    Time: 2575 ns  Iteration: 4  Process: /axi_test_pkg::master_monitor::collect_data/#FORK#59_7feff1c9c40 File: ../tb/axi_xtn.sv Line: 136
# UVM_INFO ../slave_agent_top/slave_monitor.sv(100) @ 2585000: uvm_test_top.envh.sagt_top.sagt[2].smonh [slave_monitor] Printing from waddr collect task ------------------------------------
# Name       Type      Size  Value    
# ------------------------------------
# xtn        axi_xtn   -     @1955    
#   AWID     integral  4     'd0      
#   AWADDR   integral  32    'h252e55a
#   AWLEN    integral  4     12       
#   AWSIZE   integral  3     'd1      
#   AWBURST  integral  2     'd0      
#   WID      integral  4     'd0      
#   BID      integral  4     'd0      
#   BRESP    integral  2     'd0      
#   ARID     integral  4     'd0      
#   ARADDR   integral  32    'h0      
#   ARLEN    integral  8     'd0      
#   ARSIZE   integral  3     'd0      
#   ARBURST  integral  2     'd0      
#   RID      integral  4     'd0      
# ------------------------------------
# 
# ** Warning: (vsim-8630) Infinity results from division operation.
#    Time: 2595 ns  Iteration: 3  Process: /axi_test_pkg::slave_monitor::collect_data/#FORK#55_7feff49ddd4 File: ../tb/axi_xtn.sv Line: 136
# end of drive_awadrr
# UVM_INFO ../master_agent_top/master_driver.sv(46) @ 2605000: uvm_test_top.envh.magt_top.magt[2].mdrvh [master_driver] Prinitng from driver ----------------------------------------------------------------------------------------------------
# Name                           Type      Size  Value                                                
# ----------------------------------------------------------------------------------------------------
# req                            axi_xtn   -     @2090                                                
#   begin_time                   time      64    0                                                    
#   depth                        int       32    'd2                                                  
#   parent sequence (name)       string    11    fixed_seq10                                          
#   parent sequence (full name)  string    53    uvm_test_top.envh.magt_top.magt[2].mseqrh.fixed_seq10
#   sequencer                    string    41    uvm_test_top.envh.magt_top.magt[2].mseqrh            
#   AWID                         integral  4     9                                                    
#   AWADDR                       integral  32    'h252e55a                                            
#   AWLEN                        integral  4     12                                                   
#   AWSIZE                       integral  3     'd1                                                  
#   AWBURST                      integral  2     'd0                                                  
#   WID                          integral  4     9                                                    
#   WDATA                        integral  32    'h3f45a138                                           
#   WSTRB                        integral  4     'b1100                                               
#   WLAST                        integral  1     'dX                                                  
#   WDATA                        integral  32    'hbd79dc72                                           
#   WSTRB                        integral  4     'b1100                                               
#   WLAST                        integral  1     'dX                                                  
#   WDATA                        integral  32    'hec2acf6c                                           
#   WSTRB                        integral  4     'b1100                                               
#   WLAST                        integral  1     'dX                                                  
#   WDATA                        integral  32    'h70562904                                           
#   WSTRB                        integral  4     'b1100                                               
#   WLAST                        integral  1     'dX                                                  
#   WDATA                        integral  32    'hfd217afd                                           
#   WSTRB                        integral  4     'b1100                                               
#   WLAST                        integral  1     'dX                                                  
#   WDATA                        integral  32    'h5aa764d0                                           
#   WSTRB                        integral  4     'b1100                                               
#   WLAST                        integral  1     'dX                                                  
#   WDATA                        integral  32    'h7494ad79                                           
#   WSTRB                        integral  4     'b1100                                               
#   WLAST                        integral  1     'dX                                                  
#   WDATA                        integral  32    'h1726632e                                           
#   WSTRB                        integral  4     'b1100                                               
#   WLAST                        integral  1     'dX                                                  
#   WDATA                        integral  32    'h5e3df840                                           
#   WSTRB                        integral  4     'b1100                                               
#   WLAST                        integral  1     'dX                                                  
#   WDATA                        integral  32    'h6d9a1592                                           
#   WSTRB                        integral  4     'b1100                                               
#   WLAST                        integral  1     'dX                                                  
#   WDATA                        integral  32    'hde023f1e                                           
#   WSTRB                        integral  4     'b1100                                               
#   WLAST                        integral  1     'dX                                                  
#   WDATA                        integral  32    'he80e7c7c                                           
#   WSTRB                        integral  4     'b1100                                               
#   WLAST                        integral  1     'dX                                                  
#   WDATA                        integral  32    'h55c6f57                                            
#   WSTRB                        integral  4     'b1100                                               
#   WLAST                        integral  1     'dX                                                  
#   BID                          integral  4     9                                                    
#   BRESP                        integral  2     'd0                                                  
#   ARID                         integral  4     'd0                                                  
#   ARADDR                       integral  32    'h258e70d                                            
#   ARLEN                        integral  8     'd11                                                 
#   ARSIZE                       integral  3     'd0                                                  
#   ARBURST                      integral  2     'd0                                                  
#   RID                          integral  4     'd0                                                  
#   RDATA                        integral  32    'h8d38239e                                           
#   RRESP                        integral  2     'd0                                                  
#   RDATA                        integral  32    'hefeff280                                           
#   RRESP                        integral  2     'd0                                                  
#   RDATA                        integral  32    'hf34a0f1                                            
#   RRESP                        integral  2     'd0                                                  
#   RDATA                        integral  32    'hbe618c6b                                           
#   RRESP                        integral  2     'd0                                                  
#   RDATA                        integral  32    'hac1fbd01                                           
#   RRESP                        integral  2     'd0                                                  
#   RDATA                        integral  32    'h4c620518                                           
#   RRESP                        integral  2     'd0                                                  
#   RDATA                        integral  32    'h796a3134                                           
#   RRESP                        integral  2     'd0                                                  
#   RDATA                        integral  32    'h2b450f26                                           
#   RRESP                        integral  2     'd0                                                  
#   RDATA                        integral  32    'h41ce4adc                                           
#   RRESP                        integral  2     'd0                                                  
#   RDATA                        integral  32    'h89bd5c48                                           
#   RRESP                        integral  2     'd0                                                  
#   RDATA                        integral  32    'ha9e54372                                           
#   RRESP                        integral  2     'd0                                                  
#   RDATA                        integral  32    'hc09502e9                                           
#   RRESP                        integral  2     'd0                                                  
# ----------------------------------------------------------------------------------------------------
# 
# start ofdrive_wdata
# end of read_awaddr
# start of read_awaddr
# start of read_data
# ** Warning: (vsim-8630) Infinity results from division operation.
#    Time: 2615 ns  Iteration: 3  Process: /axi_test_pkg::slave_driver::drive/#FORK#58_7feff49de30 File: ../tb/axi_xtn.sv Line: 136
# aligned:252e55a
# address calculated in slave side '{38987098, 38987098, 38987098, 38987098, 38987098, 38987098, 38987098, 38987098, 38987098, 38987098, 38987098, 38987098, 38987098}
# slave driver start of awvalid
# WSTRB in slave driver is:12
# value inside mem is: 16197
# UVM_INFO ../master_agent_top/master_monitor.sv(156) @ 2635000: uvm_test_top.envh.magt_top.magt[2].mmonh [master_monitor] Printing from wdata collect task ---------------------------------
# Name       Type      Size  Value 
# ---------------------------------
# xtn        axi_xtn   -     @2420 
#   AWID     integral  4     'd0   
#   AWADDR   integral  32    'h0   
#   AWLEN    integral  4     'd0   
#   AWSIZE   integral  3     'd0   
#   AWBURST  integral  2     'd0   
#   WID      integral  4     9     
#   WDATA    integral  32    'h3f45
#   WSTRB    integral  4     'b1100
#   WLAST    integral  1     'd0   
#   BID      integral  4     'd0   
#   BRESP    integral  2     'd0   
#   ARID     integral  4     'd0   
#   ARADDR   integral  32    'h0   
#   ARLEN    integral  8     'd0   
#   ARSIZE   integral  3     'd0   
#   ARBURST  integral  2     'd0   
#   RID      integral  4     'd0   
# ---------------------------------
# 
# UVM_INFO ../slave_agent_top/slave_monitor.sv(152) @ 2645000: uvm_test_top.envh.sagt_top.sagt[2].smonh [slave_monitor] Printing from wdata collect task ---------------------------------
# Name       Type      Size  Value 
# ---------------------------------
# xtn        axi_xtn   -     @2428 
#   AWID     integral  4     'd0   
#   AWADDR   integral  32    'h0   
#   AWLEN    integral  4     'd0   
#   AWSIZE   integral  3     'd0   
#   AWBURST  integral  2     'd0   
#   WID      integral  4     'd0   
#   WDATA    integral  32    'h3f45
#   WSTRB    integral  4     'b1100
#   WLAST    integral  1     'd0   
#   BID      integral  4     'd0   
#   BRESP    integral  2     'd0   
#   ARID     integral  4     'd0   
#   ARADDR   integral  32    'h0   
#   ARLEN    integral  8     'd0   
#   ARSIZE   integral  3     'd0   
#   ARBURST  integral  2     'd0   
#   RID      integral  4     'd0   
# ---------------------------------
# 
# slave driver start of awvalid
# WSTRB in slave driver is:12
# value inside mem is: 48505
# slave driver start of awvalid
# WSTRB in slave driver is:12
# value inside mem is: 60458
# slave driver start of awvalid
# WSTRB in slave driver is:12
# value inside mem is: 28758
# slave driver start of awvalid
# WSTRB in slave driver is:12
# value inside mem is: 64801
# slave driver start of awvalid
# WSTRB in slave driver is:12
# value inside mem is: 23207
# slave driver start of awvalid
# WSTRB in slave driver is:12
# value inside mem is: 29844
# slave driver start of awvalid
# WSTRB in slave driver is:12
# value inside mem is: 5926
# slave driver start of awvalid
# WSTRB in slave driver is:12
# value inside mem is: 24125
# slave driver start of awvalid
# WSTRB in slave driver is:12
# value inside mem is: 28058
# slave driver start of awvalid
# WSTRB in slave driver is:12
# value inside mem is: 56834
# slave driver start of awvalid
# WSTRB in slave driver is:12
# value inside mem is: 59406
# slave driver start of awvalid
# WSTRB in slave driver is:12
# value inside mem is: 1372
# memory is '{38987098:1372 }
# end of read_data
# start of driver_wresp
# BID sent is  0
# UVM_INFO ../slave_agent_top/slave_monitor.sv(161) @ 3165000: uvm_test_top.envh.sagt_top.sagt[2].smonh [slave_monitor] Printing from wresponse collect task --------------------------------
# Name       Type      Size  Value
# --------------------------------
# xtn3       axi_xtn   -     @1963
#   AWID     integral  4     'd0  
#   AWADDR   integral  32    'h0  
#   AWLEN    integral  4     'd0  
#   AWSIZE   integral  3     'd0  
#   AWBURST  integral  2     'd0  
#   WID      integral  4     'd0  
#   BID      integral  4     'd0  
#   BRESP    integral  2     'd0  
#   ARID     integral  4     'd0  
#   ARADDR   integral  32    'h0  
#   ARLEN    integral  8     'd0  
#   ARSIZE   integral  3     'd0  
#   ARBURST  integral  2     'd0  
#   RID      integral  4     'd0  
# --------------------------------
# 
# UVM_INFO ../slave_agent_top/slave_monitor.sv(161) @ 3165000: uvm_test_top.envh.sagt_top.sagt[2].smonh [slave_monitor] Printing from wresponse collect task --------------------------------
# Name       Type      Size  Value
# --------------------------------
# xtn3       axi_xtn   -     @1963
#   AWID     integral  4     'd0  
#   AWADDR   integral  32    'h0  
#   AWLEN    integral  4     'd0  
#   AWSIZE   integral  3     'd0  
#   AWBURST  integral  2     'd0  
#   WID      integral  4     'd0  
#   BID      integral  4     'd0  
#   BRESP    integral  2     'd0  
#   ARID     integral  4     'd0  
#   ARADDR   integral  32    'h0  
#   ARLEN    integral  8     'd0  
#   ARSIZE   integral  3     'd0  
#   ARBURST  integral  2     'd0  
#   RID      integral  4     'd0  
# --------------------------------
# 
# end of drive_wresp
# end of drive_wdata
# start ofdrive_bresp
# UVM_INFO ../master_agent_top/master_monitor.sv(165) @ 3195000: uvm_test_top.envh.magt_top.magt[2].mmonh [master_monitor] Printing from wresponse collect task --------------------------------
# Name       Type      Size  Value
# --------------------------------
# xtn3       axi_xtn   -     @2037
#   AWID     integral  4     'd0  
#   AWADDR   integral  32    'h0  
#   AWLEN    integral  4     'd0  
#   AWSIZE   integral  3     'd0  
#   AWBURST  integral  2     'd0  
#   WID      integral  4     'd0  
#   BID      integral  4     'd0  
#   BRESP    integral  2     'd0  
#   ARID     integral  4     'd0  
#   ARADDR   integral  32    'h0  
#   ARLEN    integral  8     'd0  
#   ARSIZE   integral  3     'd0  
#   ARBURST  integral  2     'd0  
#   RID      integral  4     'd0  
# --------------------------------
# 
# UVM_INFO ../master_agent_top/master_monitor.sv(182) @ 3215000: uvm_test_top.envh.magt_top.magt[2].mmonh [master_monitor] Printing from waddr collect task ------------------------------------
# Name       Type      Size  Value    
# ------------------------------------
# xtn3       axi_xtn   -     @2037    
#   AWID     integral  4     'd0      
#   AWADDR   integral  32    'h0      
#   AWLEN    integral  4     'd0      
#   AWSIZE   integral  3     'd0      
#   AWBURST  integral  2     'd0      
#   WID      integral  4     'd0      
#   BID      integral  4     'd0      
#   BRESP    integral  2     'd0      
#   ARID     integral  4     'd0      
#   ARADDR   integral  32    'h258e70d
#   ARLEN    integral  8     'd11     
#   ARSIZE   integral  3     'd0      
#   ARBURST  integral  2     'd0      
#   RID      integral  4     'd0      
# ------------------------------------
# 
# end of drive_bresp
# ** Warning: (vsim-8630) Infinity results from division operation.
#    Time: 3225 ns  Iteration: 4  Process: /axi_test_pkg::master_monitor::collect_data/#FORK#82_7feff1c9c7c File: ../tb/axi_xtn.sv Line: 203
# UVM_INFO ../slave_agent_top/slave_monitor.sv(178) @ 3235000: uvm_test_top.envh.sagt_top.sagt[2].smonh [slave_monitor] Printing from waddr collect task ------------------------------------
# Name       Type      Size  Value    
# ------------------------------------
# xtn3       axi_xtn   -     @1963    
#   AWID     integral  4     'd0      
#   AWADDR   integral  32    'h0      
#   AWLEN    integral  4     'd0      
#   AWSIZE   integral  3     'd0      
#   AWBURST  integral  2     'd0      
#   WID      integral  4     'd0      
#   BID      integral  4     'd0      
#   BRESP    integral  2     'd0      
#   ARID     integral  4     'd0      
#   ARADDR   integral  32    'h258e70d
#   ARLEN    integral  8     'd11     
#   ARSIZE   integral  3     'd0      
#   ARBURST  integral  2     'd0      
#   RID      integral  4     'd0      
# ------------------------------------
# 
# end of drive_raddr
# ** Warning: (vsim-8630) Infinity results from division operation.
#    Time: 3245 ns  Iteration: 3  Process: /axi_test_pkg::slave_monitor::collect_data/#FORK#77_7feff49dd9c File: ../tb/axi_xtn.sv Line: 203
# start of drive_rdata
# end of slave_addr
# start of slave_addr
# start of slave_rdata
# UVM_INFO ../slave_agent_top/slave_monitor.sv(203) @ 3285000: uvm_test_top.envh.sagt_top.sagt[2].smonh [slave_monitor] Printing from wdata collect task -------------------------------------
# Name       Type      Size  Value     
# -------------------------------------
# xtn3       axi_xtn   -     @1963     
#   AWID     integral  4     'd0       
#   AWADDR   integral  32    'h0       
#   AWLEN    integral  4     'd0       
#   AWSIZE   integral  3     'd0       
#   AWBURST  integral  2     'd0       
#   WID      integral  4     'd0       
#   BID      integral  4     'd0       
#   BRESP    integral  2     'd0       
#   ARID     integral  4     'd0       
#   ARADDR   integral  32    'h258e70d 
#   ARLEN    integral  8     'd11      
#   ARSIZE   integral  3     'd0       
#   ARBURST  integral  2     'd0       
#   RID      integral  4     'd0       
#   RDATA    integral  32    'h52d061f4
#   RRESP    integral  2     'd0       
#   RDATA    integral  32    'h52d061f4
#   RRESP    integral  2     'd0       
#   RDATA    integral  32    'h52d061f4
#   RRESP    integral  2     'd0       
#   RDATA    integral  32    'h52d061f4
#   RRESP    integral  2     'd0       
#   RDATA    integral  32    'h52d061f4
#   RRESP    integral  2     'd0       
#   RDATA    integral  32    'h52d061f4
#   RRESP    integral  2     'd0       
#   RDATA    integral  32    'h52d061f4
#   RRESP    integral  2     'd0       
#   RDATA    integral  32    'h52d061f4
#   RRESP    integral  2     'd0       
#   RDATA    integral  32    'h52d061f4
#   RRESP    integral  2     'd0       
#   RDATA    integral  32    'h52d061f4
#   RRESP    integral  2     'd0       
#   RDATA    integral  32    'h52d061f4
#   RRESP    integral  2     'd0       
#   RDATA    integral  32    'h52d061f4
#   RRESP    integral  2     'd0       
# -------------------------------------
# 
# UVM_INFO ../master_agent_top/master_monitor.sv(207) @ 3295000: uvm_test_top.envh.magt_top.magt[2].mmonh [master_monitor] Printing from wdata collect task -------------------------------------
# Name       Type      Size  Value     
# -------------------------------------
# xtn3       axi_xtn   -     @2037     
#   AWID     integral  4     'd0       
#   AWADDR   integral  32    'h0       
#   AWLEN    integral  4     'd0       
#   AWSIZE   integral  3     'd0       
#   AWBURST  integral  2     'd0       
#   WID      integral  4     'd0       
#   BID      integral  4     'd0       
#   BRESP    integral  2     'd0       
#   ARID     integral  4     'd0       
#   ARADDR   integral  32    'h258e70d 
#   ARLEN    integral  8     'd11      
#   ARSIZE   integral  3     'd0       
#   ARBURST  integral  2     'd0       
#   RID      integral  4     'd0       
#   RDATA    integral  32    'h52d061f4
#   RRESP    integral  2     'd0       
#   RDATA    integral  32    'h52d061f4
#   RRESP    integral  2     'd0       
#   RDATA    integral  32    'h52d061f4
#   RRESP    integral  2     'd0       
#   RDATA    integral  32    'h52d061f4
#   RRESP    integral  2     'd0       
#   RDATA    integral  32    'h52d061f4
#   RRESP    integral  2     'd0       
#   RDATA    integral  32    'h52d061f4
#   RRESP    integral  2     'd0       
#   RDATA    integral  32    'h52d061f4
#   RRESP    integral  2     'd0       
#   RDATA    integral  32    'h52d061f4
#   RRESP    integral  2     'd0       
#   RDATA    integral  32    'h52d061f4
#   RRESP    integral  2     'd0       
#   RDATA    integral  32    'h52d061f4
#   RRESP    integral  2     'd0       
#   RDATA    integral  32    'h52d061f4
#   RRESP    integral  2     'd0       
#   RDATA    integral  32    'h52d061f4
#   RRESP    integral  2     'd0       
# -------------------------------------
# 
# end of slave_rdata
# UVM_INFO ../master_agent_top/master_monitor.sv(104) @ 3815000: uvm_test_top.envh.magt_top.magt[3].mmonh [master_monitor] Printing from waddr collect task ------------------------------------
# Name       Type      Size  Value    
# ------------------------------------
# xtn        axi_xtn   -     @2023    
#   AWID     integral  4     'd4      
#   AWADDR   integral  32    'h338ce24
#   AWLEN    integral  4     8        
#   AWSIZE   integral  3     'd2      
#   AWBURST  integral  2     'd0      
#   WID      integral  4     'd0      
#   BID      integral  4     'd0      
#   BRESP    integral  2     'd0      
#   ARID     integral  4     'd0      
#   ARADDR   integral  32    'h0      
#   ARLEN    integral  8     'd0      
#   ARSIZE   integral  3     'd0      
#   ARBURST  integral  2     'd0      
#   RID      integral  4     'd0      
# ------------------------------------
# 
# end of drive_rdata
# ** Warning: (vsim-8630) Infinity results from division operation.
#    Time: 3825 ns  Iteration: 4  Process: /axi_test_pkg::master_monitor::collect_data/#FORK#59_7feff1c9ac4 File: ../tb/axi_xtn.sv Line: 136
# UVM_INFO ../slave_agent_top/slave_monitor.sv(100) @ 3835000: uvm_test_top.envh.sagt_top.sagt[3].smonh [slave_monitor] Printing from waddr collect task ------------------------------------
# Name       Type      Size  Value    
# ------------------------------------
# xtn        axi_xtn   -     @1933    
#   AWID     integral  4     'd0      
#   AWADDR   integral  32    'h338ce24
#   AWLEN    integral  4     8        
#   AWSIZE   integral  3     'd2      
#   AWBURST  integral  2     'd0      
#   WID      integral  4     'd0      
#   BID      integral  4     'd0      
#   BRESP    integral  2     'd0      
#   ARID     integral  4     'd0      
#   ARADDR   integral  32    'h0      
#   ARLEN    integral  8     'd0      
#   ARSIZE   integral  3     'd0      
#   ARBURST  integral  2     'd0      
#   RID      integral  4     'd0      
# ------------------------------------
# 
# end of drive_awadrr
# UVM_INFO ../master_agent_top/master_driver.sv(46) @ 3845000: uvm_test_top.envh.magt_top.magt[3].mdrvh [master_driver] Prinitng from driver ----------------------------------------------------------------------------------------------------
# Name                           Type      Size  Value                                                
# ----------------------------------------------------------------------------------------------------
# req                            axi_xtn   -     @2094                                                
#   begin_time                   time      64    0                                                    
#   depth                        int       32    'd2                                                  
#   parent sequence (name)       string    11    fixed_seq11                                          
#   parent sequence (full name)  string    53    uvm_test_top.envh.magt_top.magt[3].mseqrh.fixed_seq11
#   sequencer                    string    41    uvm_test_top.envh.magt_top.magt[3].mseqrh            
#   AWID                         integral  4     'd4                                                  
#   AWADDR                       integral  32    'h338ce24                                            
#   AWLEN                        integral  4     8                                                    
#   AWSIZE                       integral  3     'd2                                                  
#   AWBURST                      integral  2     'd0                                                  
#   WID                          integral  4     'd4                                                  
#   WDATA                        integral  32    'h2a0b9a25                                           
#   WSTRB                        integral  4     'b1111                                               
#   WLAST                        integral  1     'dX                                                  
#   WDATA                        integral  32    'ha0428012                                           
#   WSTRB                        integral  4     'b1111                                               
#   WLAST                        integral  1     'dX                                                  
#   WDATA                        integral  32    'he3bcd28e                                           
#   WSTRB                        integral  4     'b1111                                               
#   WLAST                        integral  1     'dX                                                  
#   WDATA                        integral  32    'h77ba13e6                                           
#   WSTRB                        integral  4     'b1111                                               
#   WLAST                        integral  1     'dX                                                  
#   WDATA                        integral  32    'hd9eea10e                                           
#   WSTRB                        integral  4     'b1111                                               
#   WLAST                        integral  1     'dX                                                  
#   WDATA                        integral  32    'hc6fdf13f                                           
#   WSTRB                        integral  4     'b1111                                               
#   WLAST                        integral  1     'dX                                                  
#   WDATA                        integral  32    'h18f7e3bf                                           
#   WSTRB                        integral  4     'b1111                                               
#   WLAST                        integral  1     'dX                                                  
#   WDATA                        integral  32    'hd9cdc8c                                            
#   WSTRB                        integral  4     'b1111                                               
#   WLAST                        integral  1     'dX                                                  
#   WDATA                        integral  32    'hcb910b97                                           
#   WSTRB                        integral  4     'b1111                                               
#   WLAST                        integral  1     'dX                                                  
#   BID                          integral  4     'd4                                                  
#   BRESP                        integral  2     'd0                                                  
#   ARID                         integral  4     'd2                                                  
#   ARADDR                       integral  32    'h3b0f692                                            
#   ARLEN                        integral  8     'd12                                                 
#   ARSIZE                       integral  3     'd1                                                  
#   ARBURST                      integral  2     'd0                                                  
#   RID                          integral  4     'd2                                                  
#   RDATA                        integral  32    'hd453f9f9                                           
#   RRESP                        integral  2     'd0                                                  
#   RDATA                        integral  32    'h326b69e6                                           
#   RRESP                        integral  2     'd0                                                  
#   RDATA                        integral  32    'h7daa2f26                                           
#   RRESP                        integral  2     'd0                                                  
#   RDATA                        integral  32    'h6317f03b                                           
#   RRESP                        integral  2     'd0                                                  
#   RDATA                        integral  32    'h392cf970                                           
#   RRESP                        integral  2     'd0                                                  
#   RDATA                        integral  32    'h30de812a                                           
#   RRESP                        integral  2     'd0                                                  
#   RDATA                        integral  32    'h22371dc4                                           
#   RRESP                        integral  2     'd0                                                  
#   RDATA                        integral  32    'h75d63748                                           
#   RRESP                        integral  2     'd0                                                  
#   RDATA                        integral  32    'h86c228a1                                           
#   RRESP                        integral  2     'd0                                                  
#   RDATA                        integral  32    'hb4af98c6                                           
#   RRESP                        integral  2     'd0                                                  
#   RDATA                        integral  32    'h9a000319                                           
#   RRESP                        integral  2     'd0                                                  
#   RDATA                        integral  32    'h4a3973b0                                           
#   RRESP                        integral  2     'd0                                                  
#   RDATA                        integral  32    'hae280a48                                           
#   RRESP                        integral  2     'd0                                                  
# ----------------------------------------------------------------------------------------------------
# 
# ** Warning: (vsim-8630) Infinity results from division operation.
#    Time: 3845 ns  Iteration: 3  Process: /axi_test_pkg::slave_monitor::collect_data/#FORK#55_7feff49df33 File: ../tb/axi_xtn.sv Line: 136
# start ofdrive_wdata
# end of read_awaddr
# start of read_awaddr
# start of read_data
# ** Warning: (vsim-8630) Infinity results from division operation.
#    Time: 3865 ns  Iteration: 5  Process: /axi_test_pkg::slave_driver::drive/#FORK#58_7feff49df90 File: ../tb/axi_xtn.sv Line: 136
# aligned:338ce24
# address calculated in slave side '{54054436, 54054436, 54054436, 54054436, 54054436, 54054436, 54054436, 54054436, 54054436}
# slave driver start of awvalid
# WSTRB in slave driver is:15
# value inside mem is: 705403429
# UVM_INFO ../master_agent_top/master_monitor.sv(156) @ 3875000: uvm_test_top.envh.magt_top.magt[3].mmonh [master_monitor] Printing from wdata collect task -------------------------------------
# Name       Type      Size  Value     
# -------------------------------------
# xtn        axi_xtn   -     @2473     
#   AWID     integral  4     'd0       
#   AWADDR   integral  32    'h0       
#   AWLEN    integral  4     'd0       
#   AWSIZE   integral  3     'd0       
#   AWBURST  integral  2     'd0       
#   WID      integral  4     'd4       
#   WDATA    integral  32    'h2a0b9a25
#   WSTRB    integral  4     'b1111    
#   WLAST    integral  1     'd0       
#   BID      integral  4     'd0       
#   BRESP    integral  2     'd0       
#   ARID     integral  4     'd0       
#   ARADDR   integral  32    'h0       
#   ARLEN    integral  8     'd0       
#   ARSIZE   integral  3     'd0       
#   ARBURST  integral  2     'd0       
#   RID      integral  4     'd0       
# -------------------------------------
# 
# UVM_INFO ../slave_agent_top/slave_monitor.sv(152) @ 3885000: uvm_test_top.envh.sagt_top.sagt[3].smonh [slave_monitor] Printing from wdata collect task -------------------------------------
# Name       Type      Size  Value     
# -------------------------------------
# xtn        axi_xtn   -     @2481     
#   AWID     integral  4     'd0       
#   AWADDR   integral  32    'h0       
#   AWLEN    integral  4     'd0       
#   AWSIZE   integral  3     'd0       
#   AWBURST  integral  2     'd0       
#   WID      integral  4     'd0       
#   WDATA    integral  32    'h2a0b9a25
#   WSTRB    integral  4     'b1111    
#   WLAST    integral  1     'd0       
#   BID      integral  4     'd0       
#   BRESP    integral  2     'd0       
#   ARID     integral  4     'd0       
#   ARADDR   integral  32    'h0       
#   ARLEN    integral  8     'd0       
#   ARSIZE   integral  3     'd0       
#   ARBURST  integral  2     'd0       
#   RID      integral  4     'd0       
# -------------------------------------
# 
# slave driver start of awvalid
# WSTRB in slave driver is:15
# value inside mem is: -1606254574
# slave driver start of awvalid
# WSTRB in slave driver is:15
# value inside mem is: -474164594
# slave driver start of awvalid
# WSTRB in slave driver is:15
# value inside mem is: 2008683494
# slave driver start of awvalid
# WSTRB in slave driver is:15
# value inside mem is: -638672626
# slave driver start of awvalid
# WSTRB in slave driver is:15
# value inside mem is: -956436161
# slave driver start of awvalid
# WSTRB in slave driver is:15
# value inside mem is: 418898879
# slave driver start of awvalid
# WSTRB in slave driver is:15
# value inside mem is: 228383884
# slave driver start of awvalid
# WSTRB in slave driver is:15
# value inside mem is: -879686761
# memory is '{54054436:-879686761 }
# end of read_data
# start of driver_wresp
# BID sent is  0
